Freq.	V(vout)
1.00000000000000e+000	(3.52183023041540e+000dB,-3.60693025575631e-002°)
1.02305972984251e+000	(3.52183014979075e+000dB,-3.69010507013230e-002°)
1.04665121082543e+000	(3.52183006540484e+000dB,-3.77519787163786e-002°)
1.07078670498640e+000	(3.52182997708228e+000dB,-3.86225288842298e-002°)
1.09547875712233e+000	(3.52182988463931e+000dB,-3.95131536851966e-002°)
1.12074020130978e+000	(3.52182978788382e+000dB,-4.04243160335752e-002°)
1.14658416757562e+000	(3.52182968661453e+000dB,-4.13564895182570e-002°)
1.17302408872161e+000	(3.52182958062087e+000dB,-4.23101586488630e-002°)
1.20007370730629e+000	(3.52182946968259e+000dB,-4.32858191075580e-002°)
1.22774708278787e+000	(3.52182935356885e+000dB,-4.42839780067073e-002°)
1.25605859883189e+000	(3.52182923203829e+000dB,-4.53051541524144e-002°)
1.28502297078731e+000	(3.52182910483816e+000dB,-4.63498783141882e-002°)
1.31465525333508e+000	(3.52182897170400e+000dB,-4.74186935007939e-002°)
1.34497084831302e+000	(3.52182883235895e+000dB,-4.85121552424854e-002°)
1.37598551272117e+000	(3.52182868651331e+000dB,-4.96308318797280e-002°)
1.40771536691173e+000	(3.52182853386379e+000dB,-5.07753048585978e-002°)
1.44017690296786e+000	(3.52182837409300e+000dB,-5.19461690329739e-002°)
1.47338699327572e+000	(3.52182820686869e+000dB,-5.31440329737096e-002°)
1.50736289929412e+000	(3.52182803184324e+000dB,-5.43695192849171e-002°)
1.54212228052647e+000	(3.52182784865258e+000dB,-5.56232649275835e-002°)
1.57768320369952e+000	(3.52182765691589e+000dB,-5.69059215505826e-002°)
1.61406415215389e+000	(3.52182745623443e+000dB,-5.82181558293875e-002°)
1.65128403545104e+000	(3.52182724619101e+000dB,-5.95606498125391e-002°)
1.68936219920179e+000	(3.52182702634875e+000dB,-6.09341012761508e-002°)
1.72831843512153e+000	(3.52182679625067e+000dB,-6.23392240865283e-002°)
1.76817299131726e+000	(3.52182655541822e+000dB,-6.37767485712138e-002°)
1.80894658281185e+000	(3.52182630335062e+000dB,-6.52474218985396e-002°)
1.85066040231103e+000	(3.52182603952381e+000dB,-6.67520084659354e-002°)
1.89333613121855e+000	(3.52182576338920e+000dB,-6.82912902972169e-002°)
1.93699595090551e+000	(3.52182547437252e+000dB,-6.98660674490185e-002°)
1.98166255423942e+000	(3.52182517187294e+000dB,-7.14771584265600e-002°)
2.02735915737920e+000	(3.52182485526140e+000dB,-7.31254006090805e-002°)
2.07410951184210e+000	(3.52182452387955e+000dB,-7.48116506849975e-002°)
2.12193791684895e+000	(3.52182417703842e+000dB,-7.65367850971339e-002°)
2.17086923195407e+000	(3.52182381401672e+000dB,-7.83017004982318e-002°)
2.22092888996634e+000	(3.52182343405966e+000dB,-8.01073142169163e-002°)
2.27214291016839e+000	(3.52182303637717e+000dB,-8.19545647344412e-002°)
2.32453791184044e+000	(3.52182262014236e+000dB,-8.38444121724090e-002°)
2.37814112809615e+000	(3.52182218448972e+000dB,-8.57778387917369e-002°)
2.43298042003741e+000	(3.52182172851342e+000dB,-8.77558495031239e-002°)
2.48908429123558e+000	(3.52182125126534e+000dB,-8.97794723892836e-002°)
2.54648190254671e+000	(3.52182075175304e+000dB,-9.18497592392350e-002°)
2.60520308726827e+000	(3.52182022893800e+000dB,-9.39677860948481e-002°)
2.66527836664555e+000	(3.52181968173313e+000dB,-9.61346538100742e-002°)
2.72673896573548e+000	(3.52181910900048e+000dB,-9.83514886230245e-002°)
2.78961682963638e+000	(3.52181850954927e+000dB,-1.00619442741187e-001°)
2.85394464009191e+000	(3.52181788213305e+000dB,-1.02939694940220e-001°)
2.91975583247790e+000	(3.52181722544711e+000dB,-1.05313451176511e-001°)
2.98708461318093e+000	(3.52181653812617e+000dB,-1.07741945213789e-001°)
3.05596597737760e+000	(3.52181581874099e+000dB,-1.10226439264318e-001°)
3.12643572722382e+000	(3.52181506579571e+000dB,-1.12768224644742e-001°)
3.19853049046357e+000	(3.52181427772477e+000dB,-1.15368622447080e-001°)
3.27228773946669e+000	(3.52181345288951e+000dB,-1.18028984225233e-001°)
3.34774581070574e+000	(3.52181258957488e+000dB,-1.20750692697231e-001°)
3.42494392468201e+000	(3.52181168598575e+000dB,-1.23535162463754e-001°)
3.50392220631091e+000	(3.52181074024328e+000dB,-1.26383840743126e-001°)
3.58472170577761e+000	(3.52180975038100e+000dB,-1.29298208123276e-001°)
3.66738441987342e+000	(3.52180871434074e+000dB,-1.32279779331060e-001°)
3.75195331382433e+000	(3.52180762996812e+000dB,-1.35330104019281e-001°)
3.83847234362282e+000	(3.52180649500860e+000dB,-1.38450767571774e-001°)
3.92698647887470e+000	(3.52180530710211e+000dB,-1.41643391927221e-001°)
4.01754172617274e+000	(3.52180406377866e+000dB,-1.44909636421734e-001°)
4.11018515300929e+000	(3.52180276245311e+000dB,-1.48251198650973e-001°)
4.20496491224037e+000	(3.52180140041955e+000dB,-1.51669815352126e-001°)
4.30193026711386e+000	(3.52179997484592e+000dB,-1.55167263306157e-001°)
4.40113161687482e+000	(3.52179848276802e+000dB,-1.58745360260846e-001°)
4.50262052296127e+000	(3.52179692108346e+000dB,-1.62405965875103e-001°)
4.60644973580409e+000	(3.52179528654500e+000dB,-1.66150982685055e-001°)
4.71267322224483e+000	(3.52179357575406e+000dB,-1.69982357092310e-001°)
4.82134619358582e+000	(3.52179178515334e+000dB,-1.73902080375088e-001°)
4.93252513428712e+000	(3.52178991101969e+000dB,-1.77912189722517e-001°)
5.04626783132516e+000	(3.52178794945640e+000dB,-1.82014769292796e-001°)
5.16263340422846e+000	(3.52178589638464e+000dB,-1.86211951295841e-001°)
5.28168233580588e+000	(3.52178374753563e+000dB,-1.90505917100568e-001°)
5.40347650358351e+000	(3.52178149844147e+000dB,-1.94898898367935e-001°)
5.52807921196649e+000	(3.52177914442549e+000dB,-1.99393178210046e-001°)
5.65555522514243e+000	(3.52177668059320e+000dB,-2.03991092375718e-001°)
5.78597080074360e+000	(3.52177410182169e+000dB,-2.08695030463551e-001°)
5.91939372428539e+000	(3.52177140274900e+000dB,-2.13507437162870e-001°)
6.05589334439885e+000	(3.52176857776307e+000dB,-2.18430813523159e-001°)
6.19554060887574e+000	(3.52176562099008e+000dB,-2.23467718252736e-001°)
6.33840810154470e+000	(3.52176252628226e+000dB,-2.28620769047301e-001°)
6.48457007999789e+000	(3.52175928720488e+000dB,-2.33892643949130e-001°)
6.63410251418746e+000	(3.52175589702328e+000dB,-2.39286082737335e-001°)
6.78708312591213e+000	(3.52175234868835e+000dB,-2.44803888350385e-001°)
6.94359142921431e+000	(3.52174863482243e+000dB,-2.50448928341011e-001°)
7.10370877170875e+000	(3.52174474770360e+000dB,-2.56224136364813e-001°)
7.26751837686421e+000	(3.52174067924965e+000dB,-2.62132513703057e-001°)
7.43510538726017e+000	(3.52173642100258e+000dB,-2.68177130820290e-001°)
7.60655690884097e+000	(3.52173196410644e+000dB,-2.74361128958073e-001°)
7.78196205619051e+000	(3.52172729929563e+000dB,-2.80687721764967e-001°)
7.96141199885091e+000	(3.52172241687113e+000dB,-2.87160196964297e-001°)
8.14500000870932e+000	(3.52171730668146e+000dB,-2.93781918060044e-001°)
8.33282150847739e+000	(3.52171195810175e+000dB,-3.00556326081924e-001°)
8.52497412128872e+000	(3.52170636001134e+000dB,-3.07486941370691e-001°)
8.72155772144001e+000	(3.52170050077097e+000dB,-3.14577365404210e-001°)
8.92267448630226e+000	(3.52169436819844e+000dB,-3.21831282665602e-001°)
9.12842894942904e+000	(3.52168794954322e+000dB,-3.29252462554257e-001°)
9.33892805488941e+000	(3.52168123146009e+000dB,-3.36844761340596e-001°)
9.55428121285378e+000	(3.52167419998142e+000dB,-3.44612124165738e-001°)
9.77460035646155e+000	(3.52166684048794e+000dB,-3.52558587087077e-001°)
1.00000000000000e+001	(3.52165913767853e+000dB,-3.60688279170667e-001°)
1.02305972984251e+001	(3.52165107553838e+000dB,-3.69005424631617e-001°)
1.04665121082543e+001	(3.52164263730563e+000dB,-3.77514345023533e-001°)
1.07078670498640e+001	(3.52163380543671e+000dB,-3.86219461478049e-001°)
1.09547875712234e+001	(3.52162456156964e+000dB,-3.95125296995839e-001°)
1.12074020130978e+001	(3.52161488648604e+000dB,-4.04236478789805e-001°)
1.14658416757563e+001	(3.52160476007116e+000dB,-4.13557740682110e-001°)
1.17302408872162e+001	(3.52159416127206e+000dB,-4.23093925555958e-001°)
1.20007370730629e+001	(3.52158306805385e+000dB,-4.32849987863456e-001°)
1.22774708278787e+001	(3.52157145735392e+000dB,-4.42830996190824e-001°)
1.25605859883189e+001	(3.52155930503401e+000dB,-4.53042135882220e-001°)
1.28502297078731e+001	(3.52154658583215e+000dB,-4.63488711723415e-001°)
1.31465525333509e+001	(3.52153327330192e+000dB,-4.74176150686960e-001°)
1.34497084831303e+001	(3.52151933976967e+000dB,-4.85110004739779e-001°)
1.37598551272118e+001	(3.52150475626922e+000dB,-4.96295953714773e-001°)
1.40771536691173e+001	(3.52148949248322e+000dB,-5.07739808248243e-001°)
1.44017690296787e+001	(3.52147351668060e+000dB,-5.19447512783728e-001°)
1.47338699327573e+001	(3.52145679565037e+000dB,-5.31425148644741e-001°)
1.50736289929413e+001	(3.52143929463283e+000dB,-5.43678937177026e-001°)
1.54212228052647e+001	(3.52142097724712e+000dB,-5.56215242962712e-001°)
1.57768320369953e+001	(3.52140180541597e+000dB,-5.69040577107012e-001°)
1.61406415215390e+001	(3.52138173928637e+000dB,-5.82161600600042e-001°)
1.65128403545105e+001	(3.52136073714677e+000dB,-5.95585127754846e-001°)
1.68936219920180e+001	(3.52133875534075e+000dB,-6.09318129722994e-001°)
1.72831843512154e+001	(3.52131574817600e+000dB,-6.23367738090585e-001°)
1.76817299131726e+001	(3.52129166782972e+000dB,-6.37741248554940e-001°)
1.80894658281186e+001	(3.52126646424910e+000dB,-6.52446124685097e-001°)
1.85066040231103e+001	(3.52124008504766e+000dB,-6.67490001766819e-001°)
1.89333613121855e+001	(3.52121247539608e+000dB,-6.82880690734946e-001°)
1.93699595090551e+001	(3.52118357790887e+000dB,-6.98626182193866e-001°)
1.98166255423943e+001	(3.52115333252583e+000dB,-7.14734650529181e-001°)
2.02735915737920e+001	(3.52112167638364e+000dB,-7.31214458111554e-001°)
2.07410951184210e+001	(3.52108854369121e+000dB,-7.48074159595347e-001°)
2.12193791684896e+001	(3.52105386558931e+000dB,-7.65322506313518e-001°)
2.17086923195407e+001	(3.52101757000849e+000dB,-7.82968450771555e-001°)
2.22092888996635e+001	(3.52097958151987e+000dB,-8.01021151241354e-001°)
2.27214291016839e+001	(3.52093982117806e+000dB,-8.19489976459072e-001°)
2.32453791184045e+001	(3.52089820635814e+000dB,-8.38384510426351e-001°)
2.37814112809616e+001	(3.52085465058361e+000dB,-8.57714557320182e-001°)
2.43298042003741e+001	(3.52080906334722e+000dB,-8.77490146511260e-001°)
2.48908429123559e+001	(3.52076134992568e+000dB,-8.97721537693621e-001°)
2.54648190254672e+001	(3.52071141117455e+000dB,-9.18419226129322e-001°)
2.60520308726828e+001	(3.52065914333530e+000dB,-9.39593948007951e-001°)
2.66527836664556e+001	(3.52060443781187e+000dB,-9.61256685925570e-001°)
2.72673896573548e+001	(3.52054718094848e+000dB,-9.83418674484458e-001°)
2.78961682963639e+001	(3.52048725379063e+000dB,-1.00609140601514e+000°)
2.85394464009192e+001	(3.52042453184403e+000dB,-1.02928663642579e+000°)
2.91975583247791e+001	(3.52035888481388e+000dB,-1.05301639117858e+000°)
2.98708461318094e+001	(3.52029017633206e+000dB,-1.07729297139701e+000°)
3.05596597737761e+001	(3.52021826368163e+000dB,-1.10212896010658e+000°)
3.12643572722383e+001	(3.52014299749337e+000dB,-1.12753722861089e+000°)
3.19853049046358e+001	(3.52006422144342e+000dB,-1.15353094300644e+000°)
3.27228773946670e+001	(3.51998177192682e+000dB,-1.18012357083776e+000°)
3.34774581070575e+001	(3.51989547771583e+000dB,-1.20732888789631e+000°)
3.42494392468202e+001	(3.51980515961397e+000dB,-1.23516098516485e+000°)
3.50392220631093e+001	(3.51971063007302e+000dB,-1.26363427591120e+000°)
3.58472170577762e+001	(3.51961169281832e+000dB,-1.29276350293285e+000°)
3.66738441987343e+001	(3.51950814243485e+000dB,-1.32256374595539e+000°)
3.75195331382434e+001	(3.51939976394622e+000dB,-1.35305042918664e+000°)
3.83847234362283e+001	(3.51928633236547e+000dB,-1.38423932903228e+000°)
3.92698647887472e+001	(3.51916761223840e+000dB,-1.41614658196967e+000°)
4.01754172617275e+001	(3.51904335714963e+000dB,-1.44878869258894e+000°)
4.11018515300930e+001	(3.51891330921705e+000dB,-1.48218254179971e+000°)
4.20496491224038e+001	(3.51877719856293e+000dB,-1.51634539520650e+000°)
4.30193026711388e+001	(3.51863474275083e+000dB,-1.55129491165743e+000°)
4.40113161687483e+001	(3.51848564620740e+000dB,-1.58704915196629e+000°)
4.50262052296129e+001	(3.51832959961087e+000dB,-1.62362658781193e+000°)
4.60644973580411e+001	(3.51816627925799e+000dB,-1.66104611081609e+000°)
4.71267322224485e+001	(3.51799534639103e+000dB,-1.69932704180352e+000°)
4.82134619358584e+001	(3.51781644650443e+000dB,-1.73848914024552e+000°)
4.93252513428714e+001	(3.51762920861450e+000dB,-1.77855261388838e+000°)
5.04626783132518e+001	(3.51743324449621e+000dB,-1.81953812857100e+000°)
5.16263340422848e+001	(3.51722814788494e+000dB,-1.86146681823213e+000°)
5.28168233580590e+001	(3.51701349364221e+000dB,-1.90436029510757e+000°)
5.40347650358353e+001	(3.51678883688318e+000dB,-1.94824066012312e+000°)
5.52807921196651e+001	(3.51655371206004e+000dB,-1.99313051348007e+000°)
5.65555522514245e+001	(3.51630763201292e+000dB,-2.03905296543841e+000°)
5.78597080074362e+001	(3.51605008696728e+000dB,-2.08603164729686e+000°)
5.91939372428541e+001	(3.51578054349213e+000dB,-2.13409072257024e+000°)
6.05589334439887e+001	(3.51549844340359e+000dB,-2.18325489836808e+000°)
6.19554060887576e+001	(3.51520320263068e+000dB,-2.23354943697013e+000°)
6.33840810154473e+001	(3.51489421001346e+000dB,-2.28500016760334e+000°)
6.48457007999791e+001	(3.51457082606291e+000dB,-2.33763349841770e+000°)
6.63410251418748e+001	(3.51423238164898e+000dB,-2.39147642866259e+000°)
6.78708312591215e+001	(3.51387817664089e+000dB,-2.44655656105888e+000°)
6.94359142921434e+001	(3.51350747847972e+000dB,-2.50290211437176e+000°)
7.10370877170878e+001	(3.51311952068729e+000dB,-2.56054193617623e+000°)
7.26751837686424e+001	(3.51271350131285e+000dB,-2.61950551581901e+000°)
7.43510538726019e+001	(3.51228858129484e+000dB,-2.67982299756957e+000°)
7.60655690884099e+001	(3.51184388277028e+000dB,-2.74152519396019e+000°)
7.78196205619054e+001	(3.51137848728706e+000dB,-2.80464359931136e+000°)
7.96141199885094e+001	(3.51089143395382e+000dB,-2.86921040343581e+000°)
8.14500000870935e+001	(3.51038171749013e+000dB,-2.93525850551933e+000°)
8.33282150847742e+001	(3.50984828620594e+000dB,-3.00282152817018e+000°)
8.52497412128875e+001	(3.50929003987496e+000dB,-3.07193383163352e+000°)
8.72155772144005e+001	(3.50870582752423e+000dB,-3.14263052815854e+000°)
8.92267448630230e+001	(3.50809444512508e+000dB,-3.21494749651823e+000°)
9.12842894942907e+001	(3.50745463316972e+000dB,-3.28892139666210e+000°)
9.33892805488944e+001	(3.50678507415470e+000dB,-3.36458968450181e+000°)
9.55428121285382e+001	(3.50608438994961e+000dB,-3.44199062681121e+000°)
9.77460035646158e+001	(3.50535113904042e+000dB,-3.52116331623165e+000°)
1.00000000000001e+002	(3.50458381366833e+000dB,-3.60214768636681e+000°)
1.02305972984252e+002	(3.50378083682218e+000dB,-3.68498452695461e+000°)
1.04665121082543e+002	(3.50294055912291e+000dB,-3.76971549909427e+000°)
1.07078670498640e+002	(3.50206125555106e+000dB,-3.85638315051620e+000°)
1.09547875712234e+002	(3.50114112205007e+000dB,-3.94503093087033e+000°)
1.12074020130979e+002	(3.50017827196744e+000dB,-4.03570320701144e+000°)
1.14658416757563e+002	(3.49917073235466e+000dB,-4.12844527825953e+000°)
1.17302408872162e+002	(3.49811644009838e+000dB,-4.22330339160692e+000°)
1.20007370730630e+002	(3.49701323789827e+000dB,-4.32032475684678e+000°)
1.22774708278788e+002	(3.49585887006027e+000dB,-4.41955756158503e+000°)
1.25605859883189e+002	(3.49465097812280e+000dB,-4.52105098611590e+000°)
1.28502297078732e+002	(3.49338709628977e+000dB,-4.62485521810921e+000°)
1.31465525333509e+002	(3.49206464668352e+000dB,-4.73102146708432e+000°)
1.34497084831303e+002	(3.49068093438748e+000dB,-4.83960197861649e+000°)
1.37598551272118e+002	(3.48923314228874e+000dB,-4.95065004824465e+000°)
1.40771536691174e+002	(3.48771832571512e+000dB,-5.06422003501667e+000°)
1.44017690296787e+002	(3.48613340684004e+000dB,-5.18036737463155e+000°)
1.47338699327573e+002	(3.48447516886738e+000dB,-5.29914859211778e+000°)
1.50736289929413e+002	(3.48274024998312e+000dB,-5.42062131398483e+000°)
1.54212228052648e+002	(3.48092513706113e+000dB,-5.54484427978969e+000°)
1.57768320369953e+002	(3.47902615912291e+000dB,-5.67187735304132e+000°)
1.61406415215391e+002	(3.47703948053020e+000dB,-5.80178153137563e+000°)
1.65128403545105e+002	(3.47496109392953e+000dB,-5.93461895591897e+000°)
1.68936219920180e+002	(3.47278681290736e+000dB,-6.07045291975073e+000°)
1.72831843512154e+002	(3.47051226437201e+000dB,-6.20934787538494e+000°)
1.76817299131727e+002	(3.46813288065055e+000dB,-6.35136944116124e+000°)
1.80894658281187e+002	(3.46564389128241e+000dB,-6.49658440645564e+000°)
1.85066040231104e+002	(3.46304031451928e+000dB,-6.64506073558941e+000°)
1.89333613121856e+002	(3.46031694850696e+000dB,-6.79686757032851e+000°)
1.93699595090552e+002	(3.45746836216053e+000dB,-6.95207523084387e+000°)
1.98166255423943e+002	(3.45448888570349e+000dB,-7.11075521500716e+000°)
2.02735915737921e+002	(3.45137260089805e+000dB,-7.27298019587441e+000°)
2.07410951184211e+002	(3.44811333092038e+000dB,-7.43882401721805e+000°)
2.12193791684897e+002	(3.44470462991109e+000dB,-7.60836168694811e+000°)
2.17086923195408e+002	(3.44113977218147e+000dB,-7.78166936825242e+000°)
2.22092888996636e+002	(3.43741174106788e+000dB,-7.95882436829423e+000°)
2.27214291016840e+002	(3.43351321744187e+000dB,-8.13990512427037e+000°)
2.32453791184046e+002	(3.42943656786883e+000dB,-8.32499118664423e+000°)
2.37814112809617e+002	(3.42517383241648e+000dB,-8.51416319934576e+000°)
2.43298042003742e+002	(3.42071671211256e+000dB,-8.70750287673417e+000°)
2.48908429123560e+002	(3.41605655605616e+000dB,-8.90509297708269e+000°)
2.54648190254672e+002	(3.41118434818309e+000dB,-9.10701727237122e+000°)
2.60520308726829e+002	(3.40609069370047e+000dB,-9.31336051412794e+000°)
2.66527836664557e+002	(3.40076580517168e+000dB,-9.52420839506358e+000°)
2.72673896573549e+002	(3.39519948830532e+000dB,-9.73964750624422e+000°)
2.78961682963640e+002	(3.38938112741575e+000dB,-9.95976528951686e+000°)
2.85394464009193e+002	(3.38329967059650e+000dB,-1.01846499849006e+001°)
2.91975583247792e+002	(3.37694361461155e+000dB,-1.04143905726456e+001°)
2.98708461318095e+002	(3.37030098952974e+000dB,-1.06490767096690e+001°)
3.05596597737762e+002	(3.36335934312827e+000dB,-1.08887986600221e+001°)
3.12643572722384e+002	(3.35610572508137e+000dB,-1.11336472190960e+001°)
3.19853049046359e+002	(3.34852667097466e+000dB,-1.13837136312159e+001°)
3.27228773946671e+002	(3.34060818618098e+000dB,-1.16390895002881e+001°)
3.34774581070576e+002	(3.33233572962094e+000dB,-1.18998666931618e+001°)
3.42494392468203e+002	(3.32369419747846e+000dB,-1.21661372353571e+001°)
3.50392220631094e+002	(3.31466790688998e+000dB,-1.24379931988013e+001°)
3.58472170577763e+002	(3.30524057968669e+000dB,-1.27155265812389e+001°)
3.66738441987344e+002	(3.29539532623427e+000dB,-1.29988291769459e+001°)
3.75195331382435e+002	(3.28511462944143e+000dB,-1.32879924384259e+001°)
3.83847234362284e+002	(3.27438032900495e+000dB,-1.35831073287314e+001°)
3.92698647887473e+002	(3.26317360597441e+000dB,-1.38842641640984e+001°)
4.01754172617276e+002	(3.25147496771769e+000dB,-1.41915524465576e+001°)
4.11018515300931e+002	(3.23926423338577e+000dB,-1.45050606862527e+001°)
4.20496491224040e+002	(3.22652051995532e+000dB,-1.48248762131631e+001°)
4.30193026711389e+002	(3.21322222899602e+000dB,-1.51510849779931e+001°)
4.40113161687485e+002	(3.19934703422734e+000dB,-1.54837713420015e+001°)
4.50262052296130e+002	(3.18487187002953e+000dB,-1.58230178555871e+001°)
4.60644973580413e+002	(3.16977292100706e+000dB,-1.61689050254814e+001°)
4.71267322224486e+002	(3.15402561276965e+000dB,-1.65215110704634e+001°)
4.82134619358586e+002	(3.13760460405201e+000dB,-1.68809116655272e+001°)
4.93252513428715e+002	(3.12048378034098e+000dB,-1.72471796745568e+001°)
5.04626783132520e+002	(3.10263624916097e+000dB,-1.76203848715423e+001°)
5.16263340422850e+002	(3.08403433719447e+000dB,-1.80005936505542e+001°)
5.28168233580592e+002	(3.06464958940004e+000dB,-1.83878687246650e+001°)
5.40347650358355e+002	(3.04445277031084e+000dB,-1.87822688141753e+001°)
