Freq.	V(vo)
1.00000000000000e-003	(1.21470547685050e+001dB,1.79999995968176e+002°)
1.02305972984251e-003	(1.21470547685050e+001dB,1.79999995875203e+002°)
1.04665121082543e-003	(1.21470547685050e+001dB,1.79999995780086e+002°)
1.07078670498640e-003	(1.21470547685050e+001dB,1.79999995682776e+002°)
1.09547875712233e-003	(1.21470547685050e+001dB,1.79999995583222e+002°)
1.12074020130978e-003	(1.21470547685050e+001dB,1.79999995481373e+002°)
1.14658416757562e-003	(1.21470547685050e+001dB,1.79999995377174e+002°)
1.17302408872161e-003	(1.21470547685050e+001dB,1.79999995270573e+002°)
1.20007370730629e-003	(1.21470547685050e+001dB,1.79999995161514e+002°)
1.22774708278787e-003	(1.21470547685050e+001dB,1.79999995049940e+002°)
1.25605859883189e-003	(1.21470547685050e+001dB,1.79999994935793e+002°)
1.28502297078731e-003	(1.21470547685050e+001dB,1.79999994819013e+002°)
1.31465525333508e-003	(1.21470547685050e+001dB,1.79999994699541e+002°)
1.34497084831302e-003	(1.21470547685050e+001dB,1.79999994577314e+002°)
1.37598551272117e-003	(1.21470547685050e+001dB,1.79999994452268e+002°)
1.40771536691173e-003	(1.21470547685050e+001dB,1.79999994324339e+002°)
1.44017690296786e-003	(1.21470547685050e+001dB,1.79999994193460e+002°)
1.47338699327572e-003	(1.21470547685050e+001dB,1.79999994059563e+002°)
1.50736289929412e-003	(1.21470547685050e+001dB,1.79999993922578e+002°)
1.54212228052647e-003	(1.21470547685050e+001dB,1.79999993782434e+002°)
1.57768320369952e-003	(1.21470547685050e+001dB,1.79999993639059e+002°)
1.61406415215389e-003	(1.21470547685050e+001dB,1.79999993492377e+002°)
1.65128403545104e-003	(1.21470547685050e+001dB,1.79999993342313e+002°)
1.68936219920179e-003	(1.21470547685050e+001dB,1.79999993188789e+002°)
1.72831843512153e-003	(1.21470547685050e+001dB,1.79999993031724e+002°)
1.76817299131726e-003	(1.21470547685050e+001dB,1.79999992871037e+002°)
1.80894658281185e-003	(1.21470547685050e+001dB,1.79999992706645e+002°)
1.85066040231102e-003	(1.21470547685050e+001dB,1.79999992538463e+002°)
1.89333613121855e-003	(1.21470547685050e+001dB,1.79999992366402e+002°)
1.93699595090551e-003	(1.21470547685050e+001dB,1.79999992190373e+002°)
1.98166255423942e-003	(1.21470547685050e+001dB,1.79999992010285e+002°)
2.02735915737920e-003	(1.21470547685050e+001dB,1.79999991826044e+002°)
2.07410951184210e-003	(1.21470547685050e+001dB,1.79999991637555e+002°)
2.12193791684895e-003	(1.21470547685050e+001dB,1.79999991444719e+002°)
2.17086923195406e-003	(1.21470547685049e+001dB,1.79999991247437e+002°)
2.22092888996634e-003	(1.21470547685049e+001dB,1.79999991045605e+002°)
2.27214291016839e-003	(1.21470547685049e+001dB,1.79999990839119e+002°)
2.32453791184044e-003	(1.21470547685049e+001dB,1.79999990627872e+002°)
2.37814112809615e-003	(1.21470547685049e+001dB,1.79999990411753e+002°)
2.43298042003741e-003	(1.21470547685049e+001dB,1.79999990190651e+002°)
2.48908429123558e-003	(1.21470547685049e+001dB,1.79999989964450e+002°)
2.54648190254671e-003	(1.21470547685049e+001dB,1.79999989733033e+002°)
2.60520308726827e-003	(1.21470547685049e+001dB,1.79999989496279e+002°)
2.66527836664555e-003	(1.21470547685049e+001dB,1.79999989254066e+002°)
2.72673896573547e-003	(1.21470547685049e+001dB,1.79999989006268e+002°)
2.78961682963638e-003	(1.21470547685049e+001dB,1.79999988752755e+002°)
2.85394464009191e-003	(1.21470547685049e+001dB,1.79999988493397e+002°)
2.91975583247790e-003	(1.21470547685049e+001dB,1.79999988228058e+002°)
2.98708461318093e-003	(1.21470547685049e+001dB,1.79999987956600e+002°)
3.05596597737760e-003	(1.21470547685048e+001dB,1.79999987678882e+002°)
3.12643572722382e-003	(1.21470547685048e+001dB,1.79999987394761e+002°)
3.19853049046357e-003	(1.21470547685048e+001dB,1.79999987104087e+002°)
3.27228773946669e-003	(1.21470547685048e+001dB,1.79999986806711e+002°)
3.34774581070574e-003	(1.21470547685048e+001dB,1.79999986502477e+002°)
3.42494392468201e-003	(1.21470547685048e+001dB,1.79999986191228e+002°)
3.50392220631091e-003	(1.21470547685048e+001dB,1.79999985872802e+002°)
3.58472170577761e-003	(1.21470547685048e+001dB,1.79999985547032e+002°)
3.66738441987342e-003	(1.21470547685048e+001dB,1.79999985213751e+002°)
3.75195331382432e-003	(1.21470547685047e+001dB,1.79999984872784e+002°)
3.83847234362282e-003	(1.21470547685047e+001dB,1.79999984523954e+002°)
3.92698647887470e-003	(1.21470547685047e+001dB,1.79999984167081e+002°)
4.01754172617274e-003	(1.21470547685047e+001dB,1.79999983801978e+002°)
4.11018515300928e-003	(1.21470547685047e+001dB,1.79999983428456e+002°)
4.20496491224037e-003	(1.21470547685047e+001dB,1.79999983046321e+002°)
4.30193026711386e-003	(1.21470547685046e+001dB,1.79999982655373e+002°)
4.40113161687482e-003	(1.21470547685046e+001dB,1.79999982255411e+002°)
4.50262052296127e-003	(1.21470547685046e+001dB,1.79999981846226e+002°)
4.60644973580409e-003	(1.21470547685046e+001dB,1.79999981427605e+002°)
4.71267322224483e-003	(1.21470547685046e+001dB,1.79999980999330e+002°)
4.82134619358582e-003	(1.21470547685045e+001dB,1.79999980561180e+002°)
4.93252513428712e-003	(1.21470547685045e+001dB,1.79999980112926e+002°)
5.04626783132516e-003	(1.21470547685045e+001dB,1.79999979654335e+002°)
5.16263340422846e-003	(1.21470547685045e+001dB,1.79999979185170e+002°)
5.28168233580588e-003	(1.21470547685044e+001dB,1.79999978705185e+002°)
5.40347650358351e-003	(1.21470547685044e+001dB,1.79999978214133e+002°)
5.52807921196649e-003	(1.21470547685044e+001dB,1.79999977711756e+002°)
5.65555522514243e-003	(1.21470547685044e+001dB,1.79999977197796e+002°)
5.78597080074360e-003	(1.21470547685043e+001dB,1.79999976671983e+002°)
5.91939372428539e-003	(1.21470547685043e+001dB,1.79999976134045e+002°)
6.05589334439885e-003	(1.21470547685043e+001dB,1.79999975583703e+002°)
6.19554060887573e-003	(1.21470547685042e+001dB,1.79999975020670e+002°)
6.33840810154470e-003	(1.21470547685042e+001dB,1.79999974444653e+002°)
6.48457007999789e-003	(1.21470547685041e+001dB,1.79999973855353e+002°)
6.63410251418745e-003	(1.21470547685041e+001dB,1.79999973252465e+002°)
6.78708312591212e-003	(1.21470547685040e+001dB,1.79999972635674e+002°)
6.94359142921431e-003	(1.21470547685040e+001dB,1.79999972004660e+002°)
7.10370877170875e-003	(1.21470547685039e+001dB,1.79999971359095e+002°)
7.26751837686421e-003	(1.21470547685039e+001dB,1.79999970698644e+002°)
7.43510538726016e-003	(1.21470547685039e+001dB,1.79999970022962e+002°)
7.60655690884096e-003	(1.21470547685038e+001dB,1.79999969331700e+002°)
7.78196205619050e-003	(1.21470547685037e+001dB,1.79999968624497e+002°)
7.96141199885091e-003	(1.21470547685037e+001dB,1.79999967900986e+002°)
8.14500000870932e-003	(1.21470547685036e+001dB,1.79999967160792e+002°)
8.33282150847738e-003	(1.21470547685035e+001dB,1.79999966403529e+002°)
8.52497412128872e-003	(1.21470547685035e+001dB,1.79999965628803e+002°)
8.72155772144001e-003	(1.21470547685034e+001dB,1.79999964836213e+002°)
8.92267448630226e-003	(1.21470547685033e+001dB,1.79999964025345e+002°)
9.12842894942904e-003	(1.21470547685032e+001dB,1.79999963195779e+002°)
9.33892805488941e-003	(1.21470547685032e+001dB,1.79999962347084e+002°)
9.55428121285378e-003	(1.21470547685031e+001dB,1.79999961478818e+002°)
9.77460035646154e-003	(1.21470547685030e+001dB,1.79999960590530e+002°)
1.00000000000000e-002	(1.21470547685029e+001dB,1.79999959681758e+002°)
1.02305972984251e-002	(1.21470547685028e+001dB,1.79999958752030e+002°)
1.04665121082543e-002	(1.21470547685027e+001dB,1.79999957800863e+002°)
1.07078670498640e-002	(1.21470547685026e+001dB,1.79999956827763e+002°)
1.09547875712234e-002	(1.21470547685024e+001dB,1.79999955832222e+002°)
1.12074020130978e-002	(1.21470547685023e+001dB,1.79999954813725e+002°)
1.14658416757563e-002	(1.21470547685022e+001dB,1.79999953771742e+002°)
1.17302408872162e-002	(1.21470547685021e+001dB,1.79999952705731e+002°)
1.20007370730629e-002	(1.21470547685019e+001dB,1.79999951615138e+002°)
1.22774708278787e-002	(1.21470547685018e+001dB,1.79999950499396e+002°)
1.25605859883189e-002	(1.21470547685016e+001dB,1.79999949357926e+002°)
1.28502297078731e-002	(1.21470547685015e+001dB,1.79999948190133e+002°)
1.31465525333509e-002	(1.21470547685013e+001dB,1.79999946995411e+002°)
1.34497084831303e-002	(1.21470547685011e+001dB,1.79999945773140e+002°)
1.37598551272118e-002	(1.21470547685009e+001dB,1.79999944522683e+002°)
1.40771536691173e-002	(1.21470547685007e+001dB,1.79999943243391e+002°)
1.44017690296786e-002	(1.21470547685005e+001dB,1.79999941934599e+002°)
1.47338699327572e-002	(1.21470547685003e+001dB,1.79999940595627e+002°)
1.50736289929413e-002	(1.21470547685001e+001dB,1.79999939225778e+002°)
1.54212228052647e-002	(1.21470547684999e+001dB,1.79999937824341e+002°)
1.57768320369953e-002	(1.21470547684996e+001dB,1.79999936390587e+002°)
1.61406415215390e-002	(1.21470547684994e+001dB,1.79999934923771e+002°)
1.65128403545105e-002	(1.21470547684991e+001dB,1.79999933423131e+002°)
1.68936219920179e-002	(1.21470547684988e+001dB,1.79999931887886e+002°)
1.72831843512153e-002	(1.21470547684986e+001dB,1.79999930317239e+002°)
1.76817299131726e-002	(1.21470547684983e+001dB,1.79999928710374e+002°)
1.80894658281186e-002	(1.21470547684979e+001dB,1.79999927066454e+002°)
1.85066040231103e-002	(1.21470547684976e+001dB,1.79999925384626e+002°)
1.89333613121855e-002	(1.21470547684973e+001dB,1.79999923664016e+002°)
1.93699595090551e-002	(1.21470547684969e+001dB,1.79999921903729e+002°)
1.98166255423943e-002	(1.21470547684965e+001dB,1.79999920102850e+002°)
2.02735915737920e-002	(1.21470547684961e+001dB,1.79999918260443e+002°)
2.07410951184210e-002	(1.21470547684957e+001dB,1.79999916375551e+002°)
2.12193791684896e-002	(1.21470547684953e+001dB,1.79999914447194e+002°)
2.17086923195407e-002	(1.21470547684948e+001dB,1.79999912474369e+002°)
2.22092888996635e-002	(1.21470547684943e+001dB,1.79999910456052e+002°)
2.27214291016839e-002	(1.21470547684938e+001dB,1.79999908391192e+002°)
2.32453791184045e-002	(1.21470547684933e+001dB,1.79999906278718e+002°)
2.37814112809616e-002	(1.21470547684928e+001dB,1.79999904117531e+002°)
2.43298042003741e-002	(1.21470547684922e+001dB,1.79999901906507e+002°)
2.48908429123559e-002	(1.21470547684916e+001dB,1.79999899644497e+002°)
2.54648190254671e-002	(1.21470547684910e+001dB,1.79999897330327e+002°)
2.60520308726828e-002	(1.21470547684903e+001dB,1.79999894962792e+002°)
2.66527836664556e-002	(1.21470547684896e+001dB,1.79999892540662e+002°)
2.72673896573548e-002	(1.21470547684889e+001dB,1.79999890062679e+002°)
2.78961682963639e-002	(1.21470547684881e+001dB,1.79999887527554e+002°)
2.85394464009192e-002	(1.21470547684873e+001dB,1.79999884933970e+002°)
2.91975583247791e-002	(1.21470547684865e+001dB,1.79999882280578e+002°)
2.98708461318094e-002	(1.21470547684857e+001dB,1.79999879566000e+002°)
3.05596597737761e-002	(1.21470547684848e+001dB,1.79999876788824e+002°)
3.12643572722383e-002	(1.21470547684838e+001dB,1.79999873947608e+002°)
3.19853049046358e-002	(1.21470547684828e+001dB,1.79999871040874e+002°)
3.27228773946670e-002	(1.21470547684818e+001dB,1.79999868067111e+002°)
3.34774581070575e-002	(1.21470547684807e+001dB,1.79999865024774e+002°)
3.42494392468202e-002	(1.21470547684796e+001dB,1.79999861912282e+002°)
3.50392220631093e-002	(1.21470547684784e+001dB,1.79999858728017e+002°)
3.58472170577762e-002	(1.21470547684771e+001dB,1.79999855470323e+002°)
3.66738441987343e-002	(1.21470547684758e+001dB,1.79999852137508e+002°)
3.75195331382434e-002	(1.21470547684745e+001dB,1.79999848727839e+002°)
3.83847234362283e-002	(1.21470547684730e+001dB,1.79999845239543e+002°)
3.92698647887472e-002	(1.21470547684715e+001dB,1.79999841670809e+002°)
4.01754172617275e-002	(1.21470547684700e+001dB,1.79999838019781e+002°)
4.11018515300930e-002	(1.21470547684683e+001dB,1.79999834284561e+002°)
4.20496491224039e-002	(1.21470547684666e+001dB,1.79999830463207e+002°)
4.30193026711388e-002	(1.21470547684648e+001dB,1.79999826553735e+002°)
4.40113161687483e-002	(1.21470547684629e+001dB,1.79999822554111e+002°)
4.50262052296129e-002	(1.21470547684610e+001dB,1.79999818462256e+002°)
4.60644973580411e-002	(1.21470547684589e+001dB,1.79999814276045e+002°)
4.71267322224485e-002	(1.21470547684568e+001dB,1.79999809993301e+002°)
4.82134619358584e-002	(1.21470547684545e+001dB,1.79999805611798e+002°)
4.93252513428714e-002	(1.21470547684522e+001dB,1.79999801129258e+002°)
5.04626783132518e-002	(1.21470547684497e+001dB,1.79999796543353e+002°)
5.16263340422848e-002	(1.21470547684471e+001dB,1.79999791851697e+002°)
5.28168233580590e-002	(1.21470547684444e+001dB,1.79999787051854e+002°)
5.40347650358354e-002	(1.21470547684416e+001dB,1.79999782141327e+002°)
5.52807921196652e-002	(1.21470547684386e+001dB,1.79999777117565e+002°)
5.65555522514245e-002	(1.21470547684355e+001dB,1.79999771977956e+002°)
5.78597080074363e-002	(1.21470547684323e+001dB,1.79999766719829e+002°)
5.91939372428542e-002	(1.21470547684289e+001dB,1.79999761340452e+002°)
6.05589334439888e-002	(1.21470547684253e+001dB,1.79999755837027e+002°)
6.19554060887576e-002	(1.21470547684216e+001dB,1.79999750206695e+002°)
6.33840810154473e-002	(1.21470547684177e+001dB,1.79999744446529e+002°)
6.48457007999792e-002	(1.21470547684137e+001dB,1.79999738553535e+002°)
6.63410251418749e-002	(1.21470547684094e+001dB,1.79999732524650e+002°)
6.78708312591216e-002	(1.21470547684049e+001dB,1.79999726356741e+002°)
6.94359142921434e-002	(1.21470547684003e+001dB,1.79999720046601e+002°)
7.10370877170878e-002	(1.21470547683954e+001dB,1.79999713590951e+002°)
7.26751837686424e-002	(1.21470547683903e+001dB,1.79999706986436e+002°)
7.43510538726020e-002	(1.21470547683849e+001dB,1.79999700229622e+002°)
7.60655690884100e-002	(1.21470547683793e+001dB,1.79999693316998e+002°)
7.78196205619054e-002	(1.21470547683734e+001dB,1.79999686244971e+002°)
7.96141199885095e-002	(1.21470547683673e+001dB,1.79999679009865e+002°)
8.14500000870936e-002	(1.21470547683609e+001dB,1.79999671607919e+002°)
8.33282150847742e-002	(1.21470547683541e+001dB,1.79999664035286e+002°)
8.52497412128876e-002	(1.21470547683471e+001dB,1.79999656288031e+002°)
8.72155772144005e-002	(1.21470547683397e+001dB,1.79999648362126e+002°)
8.92267448630231e-002	(1.21470547683320e+001dB,1.79999640253451e+002°)
9.12842894942908e-002	(1.21470547683239e+001dB,1.79999631957793e+002°)
9.33892805488945e-002	(1.21470547683155e+001dB,1.79999623470839e+002°)
9.55428121285383e-002	(1.21470547683066e+001dB,1.79999614788179e+002°)
9.77460035646159e-002	(1.21470547682974e+001dB,1.79999605905298e+002°)
1.00000000000001e-001	(1.21470547682877e+001dB,1.79999596817581e+002°)
1.02305972984252e-001	(1.21470547682776e+001dB,1.79999587520303e+002°)
1.04665121082544e-001	(1.21470547682670e+001dB,1.79999578008633e+002°)
1.07078670498640e-001	(1.21470547682558e+001dB,1.79999568277626e+002°)
1.09547875712234e-001	(1.21470547682442e+001dB,1.79999558322224e+002°)
1.12074020130979e-001	(1.21470547682320e+001dB,1.79999548137254e+002°)
1.14658416757563e-001	(1.21470547682193e+001dB,1.79999537717421e+002°)
1.17302408872162e-001	(1.21470547682060e+001dB,1.79999527057310e+002°)
1.20007370730630e-001	(1.21470547681920e+001dB,1.79999516151379e+002°)
1.22774708278788e-001	(1.21470547681774e+001dB,1.79999504993961e+002°)
1.25605859883190e-001	(1.21470547681621e+001dB,1.79999493579255e+002°)
1.28502297078732e-001	(1.21470547681461e+001dB,1.79999481901330e+002°)
1.31465525333509e-001	(1.21470547681294e+001dB,1.79999469954114e+002°)
1.34497084831303e-001	(1.21470547681119e+001dB,1.79999457731399e+002°)
1.37598551272118e-001	(1.21470547680935e+001dB,1.79999445226832e+002°)
1.40771536691174e-001	(1.21470547680743e+001dB,1.79999432433913e+002°)
1.44017690296787e-001	(1.21470547680543e+001dB,1.79999419345992e+002°)
1.47338699327573e-001	(1.21470547680332e+001dB,1.79999405956267e+002°)
1.50736289929414e-001	(1.21470547680112e+001dB,1.79999392257779e+002°)
1.54212228052648e-001	(1.21470547679882e+001dB,1.79999378243408e+002°)
1.57768320369953e-001	(1.21470547679641e+001dB,1.79999363905869e+002°)
1.61406415215391e-001	(1.21470547679388e+001dB,1.79999349237710e+002°)
1.65128403545105e-001	(1.21470547679124e+001dB,1.79999334231308e+002°)
1.68936219920180e-001	(1.21470547678848e+001dB,1.79999318878861e+002°)
1.72831843512154e-001	(1.21470547678558e+001dB,1.79999303172392e+002°)
1.76817299131727e-001	(1.21470547678255e+001dB,1.79999287103736e+002°)
1.80894658281187e-001	(1.21470547677938e+001dB,1.79999270664540e+002°)
1.85066040231104e-001	(1.21470547677607e+001dB,1.79999253846262e+002°)
1.89333613121856e-001	(1.21470547677259e+001dB,1.79999236640158e+002°)
1.93699595090552e-001	(1.21470547676896e+001dB,1.79999219037286e+002°)
1.98166255423944e-001	(1.21470547676515e+001dB,1.79999201028497e+002°)
2.02735915737921e-001	(1.21470547676117e+001dB,1.79999182604430e+002°)
2.07410951184211e-001	(1.21470547675700e+001dB,1.79999163755509e+002°)
2.12193791684897e-001	(1.21470547675264e+001dB,1.79999144471937e+002°)
2.17086923195408e-001	(1.21470547674808e+001dB,1.79999124743691e+002°)
2.22092888996636e-001	(1.21470547674330e+001dB,1.79999104560517e+002°)
2.27214291016840e-001	(1.21470547673830e+001dB,1.79999083911924e+002°)
2.32453791184046e-001	(1.21470547673306e+001dB,1.79999062787181e+002°)
2.37814112809617e-001	(1.21470547672758e+001dB,1.79999041175307e+002°)
2.43298042003743e-001	(1.21470547672185e+001dB,1.79999019065068e+002°)
2.48908429123560e-001	(1.21470547671585e+001dB,1.79998996444974e+002°)
2.54648190254673e-001	(1.21470547670957e+001dB,1.79998973303266e+002°)
2.60520308726829e-001	(1.21470547670299e+001dB,1.79998949627917e+002°)
2.66527836664557e-001	(1.21470547669611e+001dB,1.79998925406620e+002°)
2.72673896573550e-001	(1.21470547668891e+001dB,1.79998900626787e+002°)
2.78961682963640e-001	(1.21470547668137e+001dB,1.79998875275538e+002°)
2.85394464009193e-001	(1.21470547667348e+001dB,1.79998849339695e+002°)
2.91975583247793e-001	(1.21470547666522e+001dB,1.79998822805780e+002°)
2.98708461318096e-001	(1.21470547665657e+001dB,1.79998795659999e+002°)
3.05596597737762e-001	(1.21470547664753e+001dB,1.79998767888244e+002°)
3.12643572722385e-001	(1.21470547663806e+001dB,1.79998739476080e+002°)
3.19853049046360e-001	(1.21470547662815e+001dB,1.79998710408739e+002°)
3.27228773946671e-001	(1.21470547661777e+001dB,1.79998680671113e+002°)
3.34774581070577e-001	(1.21470547660692e+001dB,1.79998650247745e+002°)
3.42494392468204e-001	(1.21470547659555e+001dB,1.79998619122823e+002°)
3.50392220631094e-001	(1.21470547658366e+001dB,1.79998587280168e+002°)
3.58472170577764e-001	(1.21470547657121e+001dB,1.79998554703230e+002°)
3.66738441987345e-001	(1.21470547655818e+001dB,1.79998521375077e+002°)
3.75195331382436e-001	(1.21470547654454e+001dB,1.79998487278386e+002°)
3.83847234362285e-001	(1.21470547653027e+001dB,1.79998452395434e+002°)
3.92698647887474e-001	(1.21470547651533e+001dB,1.79998416708091e+002°)
4.01754172617277e-001	(1.21470547649969e+001dB,1.79998380197807e+002°)
4.11018515300932e-001	(1.21470547648333e+001dB,1.79998342845607e+002°)
4.20496491224040e-001	(1.21470547646620e+001dB,1.79998304632074e+002°)
4.30193026711390e-001	(1.21470547644827e+001dB,1.79998265537348e+002°)
4.40113161687485e-001	(1.21470547642951e+001dB,1.79998225541107e+002°)
4.50262052296131e-001	(1.21470547640987e+001dB,1.79998184622565e+002°)
4.60644973580413e-001	(1.21470547638931e+001dB,1.79998142760452e+002°)
4.71267322224487e-001	(1.21470547636780e+001dB,1.79998099933009e+002°)
4.82134619358586e-001	(1.21470547634528e+001dB,1.79998056117978e+002°)
4.93252513428716e-001	(1.21470547632171e+001dB,1.79998011292584e+002°)
5.04626783132521e-001	(1.21470547629704e+001dB,1.79997965433528e+002°)
5.16263340422851e-001	(1.21470547627122e+001dB,1.79997918516975e+002°)
5.28168233580593e-001	(1.21470547624419e+001dB,1.79997870518539e+002°)
5.40347650358356e-001	(1.21470547621591e+001dB,1.79997821413271e+002°)
5.52807921196654e-001	(1.21470547618630e+001dB,1.79997771175650e+002°)
5.65555522514248e-001	(1.21470547615532e+001dB,1.79997719779563e+002°)
5.78597080074365e-001	(1.21470547612289e+001dB,1.79997667198296e+002°)
5.91939372428544e-001	(1.21470547608894e+001dB,1.79997613404519e+002°)
