Freq.	V(v0)
1.00000000000000e-001	-4.51849679893519e-008,-1.83411401878903e-011
1.02305972984251e-001	-4.51849679893519e-008,-1.87640819256267e-011
1.04665121082543e-001	-4.51849679893519e-008,-1.91967765855743e-011
1.07078670498640e-001	-4.51849679893519e-008,-1.96394490674847e-011
1.09547875712233e-001	-4.51849679893519e-008,-2.00923294572366e-011
1.12074020130978e-001	-4.51849679893519e-008,-2.05556531464271e-011
1.14658416757562e-001	-4.51849679893519e-008,-2.10296609547200e-011
1.17302408872161e-001	-4.51849679893519e-008,-2.15145992550154e-011
1.20007370730629e-001	-4.51849679928202e-008,-2.20107201015059e-011
1.22774708278787e-001	-4.51849679928202e-008,-2.25182813606857e-011
1.25605859883189e-001	-4.51849679928202e-008,-2.30375468453806e-011
1.28502297078731e-001	-4.51849679928202e-008,-2.35687864518693e-011
1.31465525333508e-001	-4.51849679928202e-008,-2.41122763001652e-011
1.34497084831302e-001	-4.51849679928202e-008,-2.46682988775349e-011
1.37598551272117e-001	-4.51849679928202e-008,-2.52371431853250e-011
1.40771536691173e-001	-4.51849679928202e-008,-2.58191048891754e-011
1.44017690296786e-001	-4.51849679928202e-008,-2.64144864726951e-011
1.47338699327572e-001	-4.51849679928202e-008,-2.70235973946841e-011
1.50736289929412e-001	-4.51849679928202e-008,-2.76467542499782e-011
1.54212228052647e-001	-4.51849679928202e-008,-2.82842809340048e-011
1.57768320369952e-001	-4.51849679928202e-008,-2.89365088111326e-011
1.61406415215389e-001	-4.51849679928202e-008,-2.96037768869028e-011
1.65128403545104e-001	-4.51849679928202e-008,-3.02864319842325e-011
1.68936219920179e-001	-4.51849679928202e-008,-3.09848289236824e-011
1.72831843512153e-001	-4.51849679928202e-008,-3.16993307078790e-011
1.76817299131726e-001	-4.51849679928202e-008,-3.24303087101909e-011
1.80894658281186e-001	-4.51849679928202e-008,-3.31781428677570e-011
1.85066040231103e-001	-4.51849679928202e-008,-3.39432218789637e-011
1.89333613121855e-001	-4.51849679928202e-008,-3.47259434054768e-011
1.93699595090551e-001	-4.51849679928202e-008,-3.55267142789335e-011
1.98166255423942e-001	-4.51849679928202e-008,-3.63459507123976e-011
2.02735915737920e-001	-4.51849679928202e-008,-3.71840785166945e-011
2.07410951184210e-001	-4.51849679962885e-008,-3.80415333217320e-011
2.12193791684895e-001	-4.51849679962885e-008,-3.89187608029259e-011
2.17086923195407e-001	-4.51849679962885e-008,-3.98162169128465e-011
2.22092888996634e-001	-4.51849679962885e-008,-4.07343681182075e-011
2.27214291016839e-001	-4.51849679962885e-008,-4.16736916423185e-011
2.32453791184044e-001	-4.51849679997568e-008,-4.26346757131303e-011
2.37814112809615e-001	-4.51849679997568e-008,-4.36178198169982e-011
2.43298042003741e-001	-4.51849679997568e-008,-4.46236349582972e-011
2.48908429123558e-001	-4.51849679962885e-008,-4.56526439250263e-011
2.54648190254671e-001	-4.51849679962885e-008,-4.67053815605336e-011
2.60520308726827e-001	-4.51849680032252e-008,-4.77823950415104e-011
2.66527836664555e-001	-4.51849680032252e-008,-4.88842441623954e-011
2.72673896573548e-001	-4.51849680032252e-008,-5.00115016263356e-011
2.78961682963638e-001	-4.51849680032252e-008,-5.11647533428568e-011
2.85394464009191e-001	-4.51849680032252e-008,-5.23445987324018e-011
2.91975583247790e-001	-4.51849680032252e-008,-5.35516510378852e-011
2.98708461318093e-001	-4.51849680066935e-008,-5.47865376434389e-011
3.05596597737760e-001	-4.51849680066935e-008,-5.60499004005029e-011
3.12643572722382e-001	-4.51849680101618e-008,-5.73423959614380e-011
3.19853049046357e-001	-4.51849680101618e-008,-5.86646961208307e-011
3.27228773946669e-001	-4.51849680101618e-008,-6.00174881646699e-011
3.34774581070574e-001	-4.51849680101618e-008,-6.14014752275730e-011
3.42494392468201e-001	-4.51849680136302e-008,-6.28173766582520e-011
3.50392220631092e-001	-4.51849680136302e-008,-6.42659283934062e-011
3.58472170577761e-001	-4.51849680136302e-008,-6.57478833402361e-011
3.66738441987342e-001	-4.51849680066935e-008,-6.72640117677787e-011
3.75195331382433e-001	-4.51849680136302e-008,-6.88151017072664e-011
3.83847234362282e-001	-4.51849680136302e-008,-7.04019593617205e-011
3.92698647887470e-001	-4.51849680101618e-008,-7.20254095249847e-011
4.01754172617274e-001	-4.51849680136302e-008,-7.36862960104267e-011
4.11018515300929e-001	-4.51849680136302e-008,-7.53854820895218e-011
4.20496491224037e-001	-4.51849680136302e-008,-7.71238509405534e-011
4.30193026711386e-001	-4.51849680170985e-008,-7.89023061076556e-011
4.40113161687482e-001	-4.51849680170985e-008,-8.07217719704489e-011
4.50262052296127e-001	-4.51849680205668e-008,-8.25831942244956e-011
4.60644973580410e-001	-4.51849680309718e-008,-8.44875403728429e-011
4.71267322224483e-001	-4.51849680309718e-008,-8.64358002288985e-011
4.82134619358582e-001	-4.51849680344401e-008,-8.84289864308973e-011
4.93252513428712e-001	-4.51849680344401e-008,-9.04681349682403e-011
5.04626783132517e-001	-4.51849680309718e-008,-9.25543057199627e-011
5.16263340422847e-001	-4.51849680309718e-008,-9.46885830056255e-011
5.28168233580588e-001	-4.51849680413768e-008,-9.68720761489041e-011
5.40347650358352e-001	-4.51849680413768e-008,-9.91059200541804e-011
5.52807921196650e-001	-4.51849680448451e-008,-1.01391275796422e-010
5.65555522514243e-001	-4.51849680448451e-008,-1.03729331224674e-010
5.78597080074361e-001	-4.51849680517818e-008,-1.06121301579458e-010
5.91939372428540e-001	-4.51849680552501e-008,-1.08568430124414e-010
6.05589334439886e-001	-4.51849680587184e-008,-1.11071988792507e-010
6.19554060887574e-001	-4.51849680621868e-008,-1.13633278847132e-010
6.33840810154471e-001	-4.51849680656551e-008,-1.16253631558464e-010
6.48457007999789e-001	-4.51849680621868e-008,-1.18934408895412e-010
6.63410251418746e-001	-4.51849680725918e-008,-1.21677004233517e-010
6.78708312591213e-001	-4.51849680760601e-008,-1.24482843079185e-010
6.94359142921431e-001	-4.51849680829968e-008,-1.27353383810617e-010
7.10370877170875e-001	-4.51849680934017e-008,-1.30290118435817e-010
7.26751837686421e-001	-4.51849680934017e-008,-1.33294573368095e-010
7.43510538726017e-001	-4.51849681003384e-008,-1.36368310219434e-010
7.60655690884097e-001	-4.51849680968701e-008,-1.39512926612171e-010
7.78196205619051e-001	-4.51849681142117e-008,-1.42730057009383e-010
7.96141199885092e-001	-4.51849681176801e-008,-1.46021373564423e-010
8.14500000870932e-001	-4.51849681176801e-008,-1.49388586990048e-010
8.33282150847739e-001	-4.51849681211484e-008,-1.52833447447590e-010
8.52497412128873e-001	-4.51849681246167e-008,-1.56357745456628e-010
8.72155772144002e-001	-4.51849681350217e-008,-1.59963312825638e-010
8.92267448630227e-001	-4.51849681419584e-008,-1.63652023604106e-010
9.12842894942905e-001	-4.51849681523634e-008,-1.67425795056593e-010
9.33892805488942e-001	-4.51849681558317e-008,-1.71286588659262e-010
9.55428121285379e-001	-4.51849681697050e-008,-1.75236411119384e-010
9.77460035646155e-001	-4.51849681697050e-008,-1.79277315418364e-010
1.00000000000000e+000	-4.51849681766417e-008,-1.83411401878796e-010
1.02305972984251e+000	-4.51849681905150e-008,-1.87640819256153e-010
1.04665121082543e+000	-4.51849681974516e-008,-1.91967765855620e-010
1.07078670498640e+000	-4.51849682113250e-008,-1.96394490674715e-010
1.09547875712234e+000	-4.51849682182616e-008,-2.00923294572225e-010
1.12074020130978e+000	-4.51849682182616e-008,-2.05556531464121e-010
1.14658416757563e+000	-4.51849682390716e-008,-2.10296609547038e-010
1.17302408872162e+000	-4.51849682529449e-008,-2.15145992549981e-010
1.20007370730629e+000	-4.51849682564133e-008,-2.20107201014873e-010
1.22774708278787e+000	-4.51849682702866e-008,-2.25182813606658e-010
1.25605859883189e+000	-4.51849682876282e-008,-2.30375468453594e-010
1.28502297078731e+000	-4.51849682945649e-008,-2.35687864518465e-010
1.31465525333509e+000	-4.51849683084382e-008,-2.41122763001409e-010
1.34497084831303e+000	-4.51849683292482e-008,-2.46682988775087e-010
1.37598551272118e+000	-4.51849683465898e-008,-2.52371431852970e-010
1.40771536691173e+000	-4.51849683569948e-008,-2.58191048891454e-010
1.44017690296787e+000	-4.51849683708681e-008,-2.64144864726630e-010
1.47338699327573e+000	-4.51849683916781e-008,-2.70235973946497e-010
1.50736289929413e+000	-4.51849684090198e-008,-2.76467542499413e-010
1.54212228052647e+000	-4.51849684332981e-008,-2.82842809339650e-010
1.57768320369953e+000	-4.51849684471714e-008,-2.89365088110901e-010
1.61406415215390e+000	-4.51849684749180e-008,-2.96037768868572e-010
1.65128403545105e+000	-4.51849685061330e-008,-3.02864319841839e-010
1.68936219920180e+000	-4.51849685234747e-008,-3.09848289236304e-010
1.72831843512154e+000	-4.51849685546896e-008,-3.16993307078228e-010
1.76817299131727e+000	-4.51849685754996e-008,-3.24303087101309e-010
1.80894658281186e+000	-4.51849686067146e-008,-3.31781428676927e-010
1.85066040231103e+000	-4.51849686275246e-008,-3.39432218788948e-010
1.89333613121855e+000	-4.51849686587395e-008,-3.47259434054032e-010
1.93699595090551e+000	-4.51849686864862e-008,-3.55267142788548e-010
1.98166255423943e+000	-4.51849687246378e-008,-3.63459507123133e-010
2.02735915737920e+000	-4.51849687593211e-008,-3.71840785166043e-010
2.07410951184210e+000	-4.51849687905361e-008,-3.80415333216351e-010
2.12193791684896e+000	-4.51849688286877e-008,-3.89187608028221e-010
2.17086923195407e+000	-4.51849688737760e-008,-3.98162169127355e-010
2.22092888996635e+000	-4.51849689084593e-008,-4.07343681180890e-010
2.27214291016840e+000	-4.51849689466109e-008,-4.16736916421917e-010
2.32453791184045e+000	-4.51849689951675e-008,-4.26346757129944e-010
2.37814112809616e+000	-4.51849690437241e-008,-4.36178198168521e-010
2.43298042003741e+000	-4.51849690922808e-008,-4.46236349581411e-010
2.48908429123559e+000	-4.51849691443057e-008,-4.56526439248591e-010
2.54648190254672e+000	-4.51849692032673e-008,-4.67053815603541e-010
2.60520308726828e+000	-4.51849692518239e-008,-4.77823950413188e-010
2.66527836664556e+000	-4.51849693142539e-008,-4.88842441621900e-010
2.72673896573549e+000	-4.51849693801521e-008,-5.00115016261153e-010
2.78961682963639e+000	-4.51849694495187e-008,-5.11647533426212e-010
2.85394464009192e+000	-4.51849695119487e-008,-5.23445987321498e-010
2.91975583247791e+000	-4.51849695813153e-008,-5.35516510376151e-010
2.98708461318094e+000	-4.51849696506819e-008,-5.47865376431502e-010
3.05596597737761e+000	-4.51849697339218e-008,-5.60499004001939e-010
3.12643572722383e+000	-4.51849698171617e-008,-5.73423959611063e-010
3.19853049046358e+000	-4.51849699004016e-008,-5.86646961204757e-010
3.27228773946670e+000	-4.51849699836415e-008,-6.00174881642897e-010
3.34774581070575e+000	-4.51849700772865e-008,-6.14014752271660e-010
3.42494392468202e+000	-4.51849701778680e-008,-6.28173766578162e-010
3.50392220631093e+000	-4.51849702749813e-008,-6.42659283929402e-010
3.58472170577762e+000	-4.51849703824995e-008,-6.57478833397363e-010
3.66738441987343e+000	-4.51849705004227e-008,-6.72640117672430e-010
3.75195331382434e+000	-4.51849706079409e-008,-6.88151017066935e-010
3.83847234362283e+000	-4.51849707328008e-008,-7.04019593611067e-010
3.92698647887472e+000	-4.51849708576607e-008,-7.20254095243279e-010
4.01754172617275e+000	-4.51849709859889e-008,-7.36862960097234e-010
4.11018515300930e+000	-4.51849711385954e-008,-7.53854820887683e-010
4.20496491224039e+000	-4.51849712807969e-008,-7.71238509397463e-010
4.30193026711388e+000	-4.51849714438084e-008,-7.89023061067916e-010
4.40113161687483e+000	-4.51849715998833e-008,-8.07217719695229e-010
4.50262052296129e+000	-4.51849717559581e-008,-8.25831942235055e-010
4.60644973580411e+000	-4.51849719432479e-008,-8.44875403717825e-010
4.71267322224485e+000	-4.51849721270694e-008,-8.64358002277628e-010
4.82134619358584e+000	-4.51849723178276e-008,-8.84289864296805e-010
4.93252513428714e+000	-4.51849725224590e-008,-9.04681349669380e-010
5.04626783132518e+000	-4.51849727305588e-008,-9.25543057185688e-010
5.16263340422848e+000	-4.51849729594686e-008,-9.46885830041312e-010
5.28168233580590e+000	-4.51849731883784e-008,-9.68720761473053e-010
5.40347650358354e+000	-4.51849734311615e-008,-9.91059200524682e-010
5.52807921196652e+000	-4.51849736878179e-008,-1.01391275794588e-009
5.65555522514245e+000	-4.51849739514109e-008,-1.03729331222711e-009
5.78597080074363e+000	-4.51849742288773e-008,-1.06121301577356e-009
5.91939372428542e+000	-4.51849745236854e-008,-1.08568430122164e-009
6.05589334439888e+000	-4.51849748288984e-008,-1.11071988790098e-009
6.19554060887576e+000	-4.51849751445164e-008,-1.13633278844551e-009
6.33840810154473e+000	-4.51849754774761e-008,-1.16253631555700e-009
6.48457007999792e+000	-4.51849758277774e-008,-1.18934408892452e-009
6.63410251418748e+000	-4.51849761988887e-008,-1.21677004230348e-009
6.78708312591215e+000	-4.51849765769367e-008,-1.24482843075793e-009
6.94359142921434e+000	-4.51849769757946e-008,-1.27353383806983e-009
7.10370877170878e+000	-4.51849773919942e-008,-1.30290118431928e-009
7.26751837686424e+000	-4.51849778290038e-008,-1.33294573363927e-009
7.43510538726020e+000	-4.51849782937600e-008,-1.36368310214973e-009
7.60655690884100e+000	-4.51849787689212e-008,-1.39512926607395e-009
7.78196205619054e+000	-4.51849792648923e-008,-1.42730057004270e-009
7.96141199885095e+000	-4.51849797955468e-008,-1.46021373558944e-009
8.14500000870935e+000	-4.51849803539479e-008,-1.49388586984182e-009
8.33282150847742e+000	-4.51849809262224e-008,-1.52833447441309e-009
8.52497412128876e+000	-4.51849815366484e-008,-1.56357745449901e-009
8.72155772144005e+000	-4.51849821609478e-008,-1.59963312818438e-009
8.92267448630231e+000	-4.51849828199305e-008,-1.63652023596395e-009
9.12842894942908e+000	-4.51849835205331e-008,-1.67425795048336e-009
9.33892805488945e+000	-4.51849842419457e-008,-1.71286588650420e-009
9.55428121285382e+000	-4.51849850049783e-008,-1.75236411109915e-009
9.77460035646159e+000	-4.51849857957575e-008,-1.79277315408225e-009
1.00000000000001e+001	-4.51849866246884e-008,-1.83411401867940e-009
1.02305972984252e+001	-4.51849874952392e-008,-1.87640819244528e-009
1.04665121082544e+001	-4.51849884004733e-008,-1.91967765843175e-009
1.07078670498640e+001	-4.51849893438590e-008,-1.96394490661388e-009
1.09547875712234e+001	-4.51849903496747e-008,-2.00923294557953e-009
1.12074020130979e+001	-4.51849913901736e-008,-2.05556531448839e-009
1.14658416757563e+001	-4.51849924792292e-008,-2.10296609530675e-009
1.17302408872162e+001	-4.51849936272464e-008,-2.15145992532459e-009
1.20007370730630e+001	-4.51849948203519e-008,-2.20107200996111e-009
1.22774708278788e+001	-4.51849960724190e-008,-2.25182813586568e-009
1.25605859883190e+001	-4.51849973869160e-008,-2.30375468432082e-009
1.28502297078732e+001	-4.51849987534380e-008,-2.35687864495430e-009
1.31465525333509e+001	-4.51850001893266e-008,-2.41122762976742e-009
1.34497084831304e+001	-4.51850016911134e-008,-2.46682988748676e-009
1.37598551272118e+001	-4.51850032622669e-008,-2.52371431824692e-009
1.40771536691174e+001	-4.51850049097236e-008,-2.58191048861169e-009
1.44017690296787e+001	-4.51850066300152e-008,-2.64144864694201e-009
1.47338699327573e+001	-4.51850084370151e-008,-2.70235973911772e-009
1.50736289929414e+001	-4.51850103133815e-008,-2.76467542462236e-009
1.54212228052648e+001	-4.51850122903296e-008,-2.82842809299844e-009
1.57768320369953e+001	-4.51850143505175e-008,-2.89365088068271e-009
1.61406415215391e+001	-4.51850165182237e-008,-2.96037768822927e-009
1.65128403545105e+001	-4.51850187830431e-008,-3.02864319792960e-009
1.68936219920180e+001	-4.51850211519125e-008,-3.09848289183966e-009
1.72831843512154e+001	-4.51850236421733e-008,-3.16993307022188e-009
1.76817299131727e+001	-4.51850262295474e-008,-3.24303087041301e-009
1.80894658281187e+001	-4.51850289452497e-008,-3.31781428612672e-009
1.85066040231104e+001	-4.51850317962169e-008,-3.39432218720145e-009
1.89333613121856e+001	-4.51850347720440e-008,-3.47259433980355e-009
1.93699595090552e+001	-4.51850378761992e-008,-3.55267142709657e-009
1.98166255423944e+001	-4.51850411468343e-008,-3.63459507038657e-009
2.02735915737921e+001	-4.51850445596709e-008,-3.71840785075584e-009
2.07410951184211e+001	-4.51850481216457e-008,-3.80415333119493e-009
2.12193791684897e+001	-4.51850518743787e-008,-3.89187607924510e-009
2.17086923195408e+001	-4.51850557693131e-008,-3.98162169016307e-009
2.22092888996636e+001	-4.51850598688791e-008,-4.07343681061967e-009
2.27214291016841e+001	-4.51850641661398e-008,-4.16736916294573e-009
2.32453791184046e+001	-4.51850686472220e-008,-4.26346756993590e-009
2.37814112809617e+001	-4.51850733468090e-008,-4.36178198022522e-009
2.43298042003743e+001	-4.51850782579642e-008,-4.46236349425070e-009
2.48908429123560e+001	-4.51850834014974e-008,-4.56526439081184e-009
2.54648190254673e+001	-4.51850887912820e-008,-4.67053815424290e-009
2.60520308726829e+001	-4.51850944169131e-008,-4.77823950221246e-009
2.66527836664557e+001	-4.51851003304156e-008,-4.88842441416368e-009
2.72673896573550e+001	-4.51851064971061e-008,-5.00115016041073e-009
2.78961682963640e+001	-4.51851129551364e-008,-5.11647533190554e-009
2.85394464009193e+001	-4.51851197114430e-008,-5.23445987069156e-009
2.91975583247793e+001	-4.51851268007093e-008,-5.35516510105948e-009
2.98708461318096e+001	-4.51851342021253e-008,-5.47865376142167e-009
3.05596597737762e+001	-4.51851419607793e-008,-5.60499003692125e-009
3.12643572722385e+001	-4.51851503125177e-008,-5.73423959279200e-009
3.19853049046360e+001	-4.51851588064576e-008,-5.86646960849413e-009
3.27228773946671e+001	-4.51851676853821e-008,-6.00174881262402e-009
3.34774581070577e+001	-4.51851770013162e-008,-6.14014751864233e-009
3.42494392468204e+001	-4.51851867369182e-008,-6.28173766141899e-009
3.50392220631094e+001	-4.51851969372764e-008,-6.42659283462264e-009
3.58472170577764e+001	-4.51852075989225e-008,-6.57478832897173e-009
3.66738441987345e+001	-4.51852187600081e-008,-6.72640117136091e-009
3.75195331382436e+001	-4.51852304517482e-008,-6.88151016492670e-009
3.83847234362285e+001	-4.51852426845477e-008,-7.04019592996195e-009
3.92698647887473e+001	-4.51852554896217e-008,-7.20254094584918e-009
4.01754172617277e+001	-4.51852688912484e-008,-7.36862959392322e-009
4.11018515300932e+001	-4.51852829206428e-008,-7.53854820132919e-009
4.20496491224040e+001	-4.51852975951466e-008,-7.71238508589317e-009
4.30193026711390e+001	-4.51853129667847e-008,-7.89023060202615e-009
4.40113161687485e+001	-4.51853290563671e-008,-8.07217718768737e-009
4.50262052296131e+001	-4.51853458847037e-008,-8.25831941243010e-009
4.60644973580413e+001	-4.51853634968829e-008,-8.44875402655618e-009
4.71267322224487e+001	-4.51853819345246e-008,-8.64358001140288e-009
4.82134619358586e+001	-4.51854012357805e-008,-8.84289863079008e-009
4.93252513428716e+001	-4.51854214388021e-008,-9.04681348365430e-009
5.04626783132520e+001	-4.51854425817411e-008,-9.25543055789482e-009
5.16263340422851e+001	-4.51854647131542e-008,-9.46885828545298e-009
5.28168233580593e+001	-4.51854878781295e-008,-9.68720759871235e-009
5.40347650358356e+001	-4.51855121113505e-008,-9.91059198809582e-009
5.52807921196654e+001	-4.51855374925887e-008,-1.01391275610951e-008
5.65555522514248e+001	-4.51855640495907e-008,-1.03729331026084e-008
5.78597080074365e+001	-4.51855918378498e-008,-1.06121301366824e-008
5.91939372428544e+001	-4.51856209371376e-008,-1.08568429896741e-008
6.05589334439890e+001	-4.51856513925424e-008,-1.11071988548730e-008
6.19554060887579e+001	-4.51856832595574e-008,-1.13633278586112e-008
6.33840810154476e+001	-4.51857166110177e-008,-1.16253631278851e-008
6.48457007999795e+001	-4.51857515266947e-008,-1.18934408596025e-008
6.63410251418751e+001	-4.51857880620818e-008,-1.21677003912958e-008
6.78708312591218e+001	-4.51858263142922e-008,-1.24482842735956e-008
6.94359142921437e+001	-4.51858665781339e-008,-1.27353383443086e-008
7.10370877170881e+001	-4.51859084790274e-008,-1.30290118042292e-008
7.26751837686427e+001	-4.51859523256539e-008,-1.33294572946738e-008
7.43510538726023e+001	-4.51859982359367e-008,-1.36368309768120e-008
7.60655690884103e+001	-4.51860462688374e-008,-1.39512926128942e-008
7.78196205619057e+001	-4.51860965596208e-008,-1.42730056491982e-008
