Freq.	V(vo)
1.00000000000000e+002	(1.21468374274021e+001dB,1.79596824342604e+002°)
1.02305972984251e+002	(1.21468272884770e+001dB,1.79587527543581e+002°)
1.04665121082543e+002	(1.21468166765840e+001dB,1.79578016385727e+002°)
1.07078670498640e+002	(1.21468055696612e+001dB,1.79568285927603e+002°)
1.09547875712233e+002	(1.21467939446174e+001dB,1.79558331113934e+002°)
1.12074020130978e+002	(1.21467817772845e+001dB,1.79548146772996e+002°)
1.14658416757562e+002	(1.21467690423674e+001dB,1.79537727613937e+002°)
1.17302408872161e+002	(1.21467557133910e+001dB,1.79527068224041e+002°)
1.20007370730629e+002	(1.21467417626454e+001dB,1.79516163065926e+002°)
1.22774708278787e+002	(1.21467271611288e+001dB,1.79505006474678e+002°)
1.25605859883189e+002	(1.21467118784862e+001dB,1.79493592654929e+002°)
1.28502297078731e+002	(1.21466958829475e+001dB,1.79481915677852e+002°)
1.31465525333508e+002	(1.21466791412607e+001dB,1.79469969478103e+002°)
1.34497084831302e+002	(1.21466616186230e+001dB,1.79457747850683e+002°)
1.37598551272117e+002	(1.21466432786088e+001dB,1.79445244447735e+002°)
1.40771536691173e+002	(1.21466240830937e+001dB,1.79432452775265e+002°)
1.44017690296786e+002	(1.21466039921755e+001dB,1.79419366189789e+002°)
1.47338699327572e+002	(1.21465829637173e+001dB,1.79405977894929e+002°)
1.50736289929412e+002	(1.21465609547564e+001dB,1.79392280937807e+002°)
1.54212228052647e+002	(1.21465379187965e+001dB,1.79378268205636e+002°)
1.57768320369952e+002	(1.21465138087033e+001dB,1.79363932421846e+002°)
1.61406415215389e+002	(1.21464885739884e+001dB,1.79349266142516e+002°)
1.65128403545104e+002	(1.21464621622006e+001dB,1.79334261752438e+002°)
1.68936219920179e+002	(1.21464345184430e+001dB,1.79318911461215e+002°)
1.72831843512153e+002	(1.21464055852590e+001dB,1.79303207299259e+002°)
1.76817299131726e+002	(1.21463753025135e+001dB,1.79287141113683e+002°)
1.80894658281185e+002	(1.21463436072675e+001dB,1.79270704564113e+002°)
1.85066040231103e+002	(1.21463104336476e+001dB,1.79253889118400e+002°)
1.89333613121855e+002	(1.21462757127095e+001dB,1.79236686048237e+002°)
1.93699595090551e+002	(1.21462393722951e+001dB,1.79219086424675e+002°)
1.98166255423942e+002	(1.21462013365082e+001dB,1.79201081113577e+002°)
2.02735915737920e+002	(1.21461615270538e+001dB,1.79182660770800e+002°)
2.07410951184210e+002	(1.21461198608311e+001dB,1.79163815837603e+002°)
2.12193791684895e+002	(1.21460762512569e+001dB,1.79144536535622e+002°)
2.17086923195407e+002	(1.21460306077122e+001dB,1.79124812861896e+002°)
2.22092888996634e+002	(1.21459828353548e+001dB,1.79104634583751e+002°)
2.27214291016839e+002	(1.21459328349220e+001dB,1.79083991233569e+002°)
2.32453791184044e+002	(1.21458805025250e+001dB,1.79062872103447e+002°)
2.37814112809615e+002	(1.21458257294338e+001dB,1.79041266239725e+002°)
2.43298042003741e+002	(1.21457684011041e+001dB,1.79019162437497e+002°)
2.48908429123558e+002	(1.21457083999313e+001dB,1.78996549234559e+002°)
2.54648190254671e+002	(1.21456456005191e+001dB,1.78973414906079e+002°)
2.60520308726827e+002	(1.21455798724109e+001dB,1.78949747458310e+002°)
2.66527836664555e+002	(1.21455110790725e+001dB,1.78925534622575e+002°)
2.72673896573548e+002	(1.21454390776088e+001dB,1.78900763849047e+002°)
2.78961682963638e+002	(1.21453637177208e+001dB,1.78875422300489e+002°)
2.85394464009191e+002	(1.21452848443858e+001dB,1.78849496845368e+002°)
2.91975583247790e+002	(1.21452022930486e+001dB,1.78822974051795e+002°)
2.98708461318093e+002	(1.21451158922723e+001dB,1.78795840180364e+002°)
3.05596597737760e+002	(1.21450254626363e+001dB,1.78768081177321e+002°)
3.12643572722382e+002	(1.21449308159916e+001dB,1.78739682667545e+002°)
3.19853049046357e+002	(1.21448317565669e+001dB,1.78710629947109e+002°)
3.27228773946669e+002	(1.21447280779465e+001dB,1.78680907976277e+002°)
3.34774581070574e+002	(1.21446195656353e+001dB,1.78650501371536e+002°)
3.42494392468201e+002	(1.21445059932502e+001dB,1.78619394398410e+002°)
3.50392220631091e+002	(1.21443871265393e+001dB,1.78587570962910e+002°)
3.58472170577761e+002	(1.21442627180372e+001dB,1.78555014604281e+002°)
3.66738441987342e+002	(1.21441325095452e+001dB,1.78521708486346e+002°)
3.75195331382433e+002	(1.21439962308510e+001dB,1.78487635389273e+002°)
3.83847234362282e+002	(1.21438535991712e+001dB,1.78452777701055e+002°)
3.92698647887470e+002	(1.21437043174476e+001dB,1.78417117409010e+002°)
4.01754172617274e+002	(1.21435480782201e+001dB,1.78380636090099e+002°)
4.11018515300929e+002	(1.21433845562641e+001dB,1.78343314903089e+002°)
4.20496491224037e+002	(1.21432134124057e+001dB,1.78305134578510e+002°)
4.30193026711386e+002	(1.21430342917031e+001dB,1.78266075409446e+002°)
4.40113161687482e+002	(1.21428468212220e+001dB,1.78226117242234e+002°)
4.50262052296127e+002	(1.21426506152475e+001dB,1.78185239465468e+002°)
4.60644973580410e+002	(1.21424452647745e+001dB,1.78143421001988e+002°)
4.71267322224483e+002	(1.21422303456352e+001dB,1.78100640296877e+002°)
4.82134619358582e+002	(1.21420054116499e+001dB,1.78056875308349e+002°)
4.93252513428712e+002	(1.21417699967002e+001dB,1.78012103496568e+002°)
5.04626783132516e+002	(1.21415236111596e+001dB,1.77966301813485e+002°)
5.16263340422846e+002	(1.21412657483610e+001dB,1.77919446690162e+002°)
5.28168233580588e+002	(1.21409958719765e+001dB,1.77871514028309e+002°)
5.40347650358352e+002	(1.21407134238855e+001dB,1.77822479186858e+002°)
5.52807921196649e+002	(1.21404178181777e+001dB,1.77772316971589e+002°)
5.65555522514243e+002	(1.21401084440649e+001dB,1.77721001622365e+002°)
5.78597080074360e+002	(1.21397846601514e+001dB,1.77668506802333e+002°)
5.91939372428539e+002	(1.21394457983535e+001dB,1.77614805584418e+002°)
6.05589334439886e+002	(1.21390911554422e+001dB,1.77559870440893e+002°)
6.19554060887574e+002	(1.21387200001997e+001dB,1.77503673228510e+002°)
6.33840810154470e+002	(1.21383315633435e+001dB,1.77446185178159e+002°)
6.48457007999789e+002	(1.21379250430568e+001dB,1.77387376879949e+002°)
6.63410251418746e+002	(1.21374995981342e+001dB,1.77327218271613e+002°)
6.78708312591213e+002	(1.21370543507551e+001dB,1.77265678623884e+002°)
6.94359142921431e+002	(1.21365883805997e+001dB,1.77202726528254e+002°)
7.10370877170875e+002	(1.21361007267181e+001dB,1.77138329882165e+002°)
7.26751837686421e+002	(1.21355903807384e+001dB,1.77072455876740e+002°)
7.43510538726017e+002	(1.21350562915477e+001dB,1.77005070980583e+002°)
7.60655690884097e+002	(1.21344973568314e+001dB,1.76936140927717e+002°)
7.78196205619051e+002	(1.21339124242124e+001dB,1.76865630702156e+002°)
7.96141199885091e+002	(1.21333002878177e+001dB,1.76793504523832e+002°)
8.14500000870932e+002	(1.21326596873512e+001dB,1.76719725833448e+002°)
8.33282150847739e+002	(1.21319893025871e+001dB,1.76644257278863e+002°)
8.52497412128872e+002	(1.21312877552053e+001dB,1.76567060698560e+002°)
8.72155772144002e+002	(1.21305536004496e+001dB,1.76488097108860e+002°)
8.92267448630227e+002	(1.21297853298421e+001dB,1.76407326686705e+002°)
9.12842894942904e+002	(1.21289813637138e+001dB,1.76324708756332e+002°)
9.33892805488941e+002	(1.21281400503089e+001dB,1.76240201773238e+002°)
9.55428121285379e+002	(1.21272596643786e+001dB,1.76153763308135e+002°)
9.77460035646155e+002	(1.21263383981886e+001dB,1.76065350034157e+002°)
1.00000000000000e+003	(1.21253743631747e+001dB,1.75974917709410e+002°)
1.02305972984251e+003	(1.21243655836287e+001dB,1.75882421162925e+002°)
1.04665121082543e+003	(1.21233099946892e+001dB,1.75787814278673e+002°)
1.07078670498640e+003	(1.21222054353340e+001dB,1.75691049981938e+002°)
1.09547875712234e+003	(1.21210496490077e+001dB,1.75592080222036e+002°)
1.12074020130978e+003	(1.21198402718049e+001dB,1.75490855961234e+002°)
1.14658416757563e+003	(1.21185748371940e+001dB,1.75387327155464e+002°)
1.17302408872162e+003	(1.21172507634541e+001dB,1.75281442743914e+002°)
1.20007370730629e+003	(1.21158653516913e+001dB,1.75173150633439e+002°)
1.22774708278787e+003	(1.21144157817899e+001dB,1.75062397684129e+002°)
1.25605859883189e+003	(1.21128991062933e+001dB,1.74949129696227e+002°)
1.28502297078731e+003	(1.21113122440670e+001dB,1.74833291397522e+002°)
1.31465525333509e+003	(1.21096519726232e+001dB,1.74714826431936e+002°)
1.34497084831303e+003	(1.21079149276263e+001dB,1.74593677344171e+002°)
1.37598551272118e+003	(1.21060975906606e+001dB,1.74469785571824e+002°)
1.40771536691173e+003	(1.21041962871292e+001dB,1.74343091431890e+002°)
1.44017690296787e+003	(1.21022071768522e+001dB,1.74213534112314e+002°)
1.47338699327573e+003	(1.21001262469956e+001dB,1.74081051662816e+002°)
1.50736289929413e+003	(1.20979493073159e+001dB,1.73945580984825e+002°)
1.54212228052647e+003	(1.20956719792032e+001dB,1.73807057826377e+002°)
1.57768320369953e+003	(1.20932896896175e+001dB,1.73665416774636e+002°)
1.61406415215390e+003	(1.20907976614014e+001dB,1.73520591251926e+002°)
1.65128403545105e+003	(1.20881909088281e+001dB,1.73372513508967e+002°)
1.68936219920180e+003	(1.20854642232406e+001dB,1.73221114626621e+002°)
1.72831843512154e+003	(1.20826121661322e+001dB,1.73066324513577e+002°)
1.76817299131727e+003	(1.20796290633673e+001dB,1.72908071904239e+002°)
1.80894658281186e+003	(1.20765089869197e+001dB,1.72746284368244e+002°)
1.85066040231103e+003	(1.20732457550594e+001dB,1.72580888306751e+002°)
1.89333613121855e+003	(1.20698329134242e+001dB,1.72411808966186e+002°)
1.93699595090551e+003	(1.20662637293646e+001dB,1.72238970442997e+002°)
1.98166255423943e+003	(1.20625311785849e+001dB,1.72062295697036e+002°)
2.02735915737920e+003	(1.20586279329114e+001dB,1.71881706566437e+002°)
2.07410951184210e+003	(1.20545463495460e+001dB,1.71697123783706e+002°)
2.12193791684896e+003	(1.20502784614240e+001dB,1.71508466993235e+002°)
2.17086923195407e+003	(1.20458159577105e+001dB,1.71315654781315e+002°)
2.22092888996635e+003	(1.20411501811422e+001dB,1.71118604692883e+002°)
2.27214291016839e+003	(1.20362721023610e+001dB,1.70917233274424e+002°)
2.32453791184045e+003	(1.20311723187487e+001dB,1.70711456095795e+002°)
2.37814112809616e+003	(1.20258410303017e+001dB,1.70501187799483e+002°)
2.43298042003742e+003	(1.20202680319620e+001dB,1.70286342136862e+002°)
2.48908429123559e+003	(1.20144426972501e+001dB,1.70066832017952e+002°)
2.54648190254672e+003	(1.20083539619759e+001dB,1.69842569565984e+002°)
2.60520308726828e+003	(1.20019903109437e+001dB,1.69613466173710e+002°)
2.66527836664556e+003	(1.19953397604071e+001dB,1.69379432569862e+002°)
2.72673896573549e+003	(1.19883898453606e+001dB,1.69140378885643e+002°)
2.78961682963639e+003	(1.19811276022759e+001dB,1.68896214732571e+002°)
2.85394464009192e+003	(1.19735395523942e+001dB,1.68646849286256e+002°)
2.91975583247791e+003	(1.19656116873940e+001dB,1.68392191373801e+002°)
2.98708461318094e+003	(1.19573294502863e+001dB,1.68132149574762e+002°)
3.05596597737761e+003	(1.19486777227109e+001dB,1.67866632321030e+002°)
3.12643572722383e+003	(1.19396408057637e+001dB,1.67595548013409e+002°)
3.19853049046358e+003	(1.19302024048182e+001dB,1.67318805141311e+002°)
3.27228773946670e+003	(1.19203456140816e+001dB,1.67036312411459e+002°)
3.34774581070575e+003	(1.19100528995382e+001dB,1.66747978888209e+002°)
3.42494392468202e+003	(1.18993060835637e+001dB,1.66453714141280e+002°)
3.50392220631093e+003	(1.18880863295009e+001dB,1.66153428403657e+002°)
3.58472170577762e+003	(1.18763741262885e+001dB,1.65847032740117e+002°)
3.66738441987343e+003	(1.18641492746447e+001dB,1.65534439224354e+002°)
3.75195331382434e+003	(1.18513908738336e+001dB,1.65215561126566e+002°)
3.83847234362283e+003	(1.18380773038988e+001dB,1.64890313121048e+002°)
3.92698647887472e+003	(1.18241862216440e+001dB,1.64558611482402e+002°)
4.01754172617275e+003	(1.18096945404390e+001dB,1.64220374322840e+002°)
4.11018515300930e+003	(1.17945784250594e+001dB,1.63875521816448e+002°)
4.20496491224038e+003	(1.17788132814437e+001dB,1.63523976445845e+002°)
4.30193026711388e+003	(1.17623737474876e+001dB,1.63165663261419e+002°)
4.40113161687483e+003	(1.17452336891163e+001dB,1.62800510144496e+002°)
4.50262052296129e+003	(1.17273661939060e+001dB,1.62428448090206e+002°)
4.60644973580411e+003	(1.17087435675821e+001dB,1.62049411499584e+002°)
4.71267322224485e+003	(1.16893373342363e+001dB,1.61663338479379e+002°)
4.82134619358584e+003	(1.16691182386979e+001dB,1.61270171152173e+002°)
4.93252513428714e+003	(1.16480562499172e+001dB,1.60869855979659e+002°)
5.04626783132518e+003	(1.16261205639331e+001dB,1.60462344102760e+002°)
5.16263340422848e+003	(1.16032796176039e+001dB,1.60047591672497e+002°)
5.28168233580590e+003	(1.15795010989135e+001dB,1.59625560203488e+002°)
5.40347650358354e+003	(1.15547519601249e+001dB,1.59196216935889e+002°)
5.52807921196651e+003	(1.15289984398602e+001dB,1.58759535190261e+002°)
5.65555522514245e+003	(1.15022060814623e+001dB,1.58315494745121e+002°)
5.78597080074362e+003	(1.14743397599942e+001dB,1.57864082206423e+002°)
5.91939372428541e+003	(1.14453637143458e+001dB,1.57405291375670e+002°)
6.05589334439888e+003	(1.14152415759930e+001dB,1.56939123638379e+002°)
6.19554060887576e+003	(1.13839364121964e+001dB,1.56465588324011e+002°)
6.33840810154473e+003	(1.13514107617705e+001dB,1.55984703095387e+002°)
6.48457007999792e+003	(1.13176266873173e+001dB,1.55496494299219e+002°)
6.63410251418748e+003	(1.12825458244030e+001dB,1.55000997330692e+002°)
6.78708312591215e+003	(1.12461294354257e+001dB,1.54498256988682e+002°)
6.94359142921434e+003	(1.12083384727642e+001dB,1.53988327804703e+002°)
7.10370877170878e+003	(1.11691336425885e+001dB,1.53471274369166e+002°)
7.26751837686424e+003	(1.11284754736779e+001dB,1.52947171639209e+002°)
7.43510538726020e+003	(1.10863243923700e+001dB,1.52416105221411e+002°)
7.60655690884100e+003	(1.10426408034390e+001dB,1.51878171625838e+002°)
7.78196205619054e+003	(1.09973851697587e+001dB,1.51333478512918e+002°)
7.96141199885094e+003	(1.09505181023533e+001dB,1.50782144890104e+002°)
8.14500000870935e+003	(1.09020004514329e+001dB,1.50224301286157e+002°)
8.33282150847742e+003	(1.08517933997405e+001dB,1.49660089895753e+002°)
8.52497412128875e+003	(1.07998585615991e+001dB,1.49089664678101e+002°)
8.72155772144005e+003	(1.07461580867965e+001dB,1.48513191406884e+002°)
8.92267448630230e+003	(1.06906547625894e+001dB,1.47930847694247e+002°)
9.12842894942908e+003	(1.06333121166232e+001dB,1.47342822975241e+002°)
9.33892805488945e+003	(1.05740945313538e+001dB,1.46749318403587e+002°)
9.55428121285382e+003	(1.05129673473869e+001dB,1.46150546747474e+002°)
9.77460035646159e+003	(1.04498969752964e+001dB,1.45546732201103e+002°)
1.00000000000001e+004	(1.03848510042716e+001dB,1.44938110156003e+002°)
1.02305972984252e+004	(1.03177983086815e+001dB,1.44324926925015e+002°)
1.04665121082544e+004	(1.02487091544491e+001dB,1.43707439407324e+002°)
1.07078670498640e+004	(1.01775553084017e+001dB,1.43085914673727e+002°)
1.09547875712234e+004	(1.01043101310444e+001dB,1.42460629564661e+002°)
1.12074020130979e+004	(1.00289486818702e+001dB,1.41831870157502e+002°)
1.14658416757563e+004	(9.95144780862077e+000dB,1.41199931239573e+002°)
1.17302408872162e+004	(9.87178623512227e+000dB,1.40565115714963e+002°)
1.20007370730630e+004	(9.78994464572683e+000dB,1.39927733951803e+002°)
1.22774708278788e+004	(9.70590575791352e+000dB,1.39288103115180e+002°)
1.25605859883190e+004	(9.61965439461519e+000dB,1.38646546422434e+002°)
1.28502297078732e+004	(9.53117754234251e+000dB,1.38003392398904e+002°)
1.31465525333509e+004	(9.44046440362272e+000dB,1.37358974088136e+002°)
1.34497084831303e+004	(9.34750644428081e+000dB,1.36713628214290e+002°)
1.37598551272118e+004	(9.25229742648388e+000dB,1.36067694352305e+002°)
1.40771536691174e+004	(9.15483343348588e+000dB,1.35421514075897e+002°)
1.44017690296787e+004	(9.05511288852492e+000dB,1.34775430070408e+002°)
1.47338699327573e+004	(8.95313655991682e+000dB,1.34129785264739e+002°)
1.50736289929414e+004	(8.84890755837852e+000dB,1.33484921950069e+002°)
1.54212228052648e+004	(8.74243132443660e+000dB,1.32841180904465e+002°)
1.57768320369953e+004	(8.63371560501667e+000dB,1.32198900536000e+002°)
1.61406415215391e+004	(8.52277042411761e+000dB,1.31558416017318e+002°)
1.65128403545105e+004	(8.40960803854302e+000dB,1.30920058482074e+002°)
1.68936219920180e+004	(8.29424289189179e+000dB,1.30284154196000e+002°)
1.72831843512154e+004	(8.17669155397025e+000dB,1.29651023804882e+002°)
1.76817299131727e+004	(8.05697265461522e+000dB,1.29020981601023e+002°)
1.80894658281187e+004	(7.93510681371899e+000dB,1.28394334799733e+002°)
1.85066040231104e+004	(7.81111655838768e+000dB,1.27771382907557e+002°)
1.89333613121856e+004	(7.68502623799036e+000dB,1.27152417104299e+002°)
1.93699595090552e+004	(7.55686193358452e+000dB,1.26537719674551e+002°)
1.98166255423944e+004	(7.42665136082616e+000dB,1.25927563504359e+002°)
2.02735915737921e+004	(7.29442377152108e+000dB,1.25322211607690e+002°)
2.07410951184211e+004	(7.16020984755189e+000dB,1.24721916744905e+002°)
2.12193791684897e+004	(7.02404159954224e+000dB,1.24126921027835e+002°)
2.17086923195408e+004	(6.88595225531595e+000dB,1.23537455657010e+002°)
2.22092888996636e+004	(6.74597615380348e+000dB,1.22953740650139e+002°)
2.27214291016840e+004	(6.60414863471871e+000dB,1.22375984660020e+002°)
2.32453791184046e+004	(6.46050593053459e+000dB,1.21804384823886e+002°)
2.37814112809617e+004	(6.31508505778458e+000dB,1.21239126677230e+002°)
2.43298042003743e+004	(6.16792371120678e+000dB,1.20680384102174e+002°)
2.48908429123560e+004	(6.01906015768119e+000dB,1.20128319344716e+002°)
2.54648190254673e+004	(5.86853313618351e+000dB,1.19583083036698e+002°)
2.60520308726829e+004	(5.71638175607552e+000dB,1.19044814309422e+002°)
2.66527836664557e+004	(5.56264540254518e+000dB,1.18513640902966e+002°)
2.72673896573550e+004	(5.40736364317840e+000dB,1.17989679338933e+002°)
2.78961682963640e+004	(5.25057613946677e+000dB,1.17473035115099e+002°)
2.85394464009193e+004	(5.09232256244866e+000dB,1.16963802929556e+002°)
2.91975583247792e+004	(4.93264251234682e+000dB,1.16462066936447e+002°)
2.98708461318095e+004	(4.77157544220634e+000dB,1.15967901032750e+002°)
3.05596597737762e+004	(4.60916058776788e+000dB,1.15481369144415e+002°)
3.12643572722385e+004	(4.44543689974073e+000dB,1.15002525562092e+002°)
3.19853049046360e+004	(4.28044298300812e+000dB,1.14531415261255e+002°)
3.27228773946671e+004	(4.11421703893599e+000dB,1.14068074257578e+002°)
3.34774581070577e+004	(3.94679681225743e+000dB,1.13612529975083e+002°)
3.42494392468203e+004	(3.77821954416213e+000dB,1.13164801598301e+002°)
3.50392220631094e+004	(3.60852192854215e+000dB,1.12724900449764e+002°)
3.58472170577764e+004	(3.43774007218512e+000dB,1.12292830378464e+002°)
3.66738441987345e+004	(3.26590946092530e+000dB,1.11868588124484e+002°)
3.75195331382435e+004	(3.09306492827829e+000dB,1.11452163707542e+002°)
3.83847234362285e+004	(2.91924062891613e+000dB,1.11043540801154e+002°)
3.92698647887473e+004	(2.74447001577543e+000dB,1.10642697104583e+002°)
4.01754172617277e+004	(2.56878582004760e+000dB,1.10249604723587e+002°)
4.11018515300932e+004	(2.39222003620488e+000dB,1.09864230515347e+002°)
4.20496491224040e+004	(2.21480390819140e+000dB,1.09486536465018e+002°)
4.30193026711389e+004	(2.03656792051860e+000dB,1.09116480018651e+002°)
4.40113161687485e+004	(1.85754179061118e+000dB,1.08754014437082e+002°)
4.50262052296131e+004	(1.67775446499038e+000dB,1.08399089119451e+002°)
4.60644973580413e+004	(1.49723411755386e+000dB,1.08051649921553e+002°)
4.71267322224487e+004	(1.31600814958171e+000dB,1.07711639475638e+002°)
4.82134619358586e+004	(1.13410319260168e+000dB,1.07378997483788e+002°)
4.93252513428716e+004	(9.51545112891255e-001dB,1.07053661006177e+002°)
5.04626783132520e+004	(7.68359017503799e-001dB,1.06735564741910e+002°)
5.16263340422851e+004	(5.84569262168445e-001dB,1.06424641293158e+002°)
5.28168233580593e+004	(4.00199460371324e-001dB,1.06120821423002e+002°)
5.40347650358356e+004	(2.15272494061433e-001dB,1.05824034294956e+002°)
5.52807921196654e+004	(2.98105253595459e-002dB,1.05534207702723e+002°)
5.65555522514248e+004	(-1.56164991224936e-001dB,1.05251268301813e+002°)
5.78597080074365e+004	(-3.42633294690769e-001dB,1.04975141806245e+002°)
5.91939372428544e+004	(-5.29574303549154e-001dB,1.04705753195979e+002°)
