Freq.	V(vo)
1.00000000000000e+002	4.60848637160335e-001,-3.84055807418267e-003
1.02305972984251e+002	4.60845744231146e-001,-3.92907251097270e-003
1.04665121082543e+002	4.60842716417837e-001,-4.01962468477600e-003
1.07078670498640e+002	4.60839547436856e-001,-4.11226134605011e-003
1.09547875712233e+002	4.60836230708163e-001,-4.20703030630405e-003
1.12074020130978e+002	4.60832759349988e-001,-4.30398046155550e-003
1.14658416757562e+002	4.60829126158045e-001,-4.40316181591037e-003
1.17302408872161e+002	4.60825323589746e-001,-4.50462550568148e-003
1.20007370730629e+002	4.60821343759615e-001,-4.60842382440470e-003
1.22774708278787e+002	4.60817178408472e-001,-4.71461024750195e-003
1.25605859883189e+002	4.60812818893883e-001,-4.82323945800534e-003
1.28502297078731e+002	4.60808256173849e-001,-4.93436737277737e-003
1.31465525333508e+002	4.60803480784203e-001,-5.04805116881082e-003
1.34497084831302e+002	4.60798482823558e-001,-5.16434931046160e-003
1.37598551272117e+002	4.60793251926115e-001,-5.28332157657334e-003
1.40771536691173e+002	4.60787777247775e-001,-5.40502908881383e-003
1.44017690296786e+002	4.60782047439580e-001,-5.52953433988529e-003
1.47338699327572e+002	4.60776050623103e-001,-5.65690122237245e-003
1.50736289929412e+002	4.60769774372375e-001,-5.78719505842600e-003
1.54212228052647e+002	4.60763205683091e-001,-5.92048262939709e-003
1.57768320369952e+002	4.60756330943714e-001,-6.05683220604170e-003
1.61406415215389e+002	4.60749135915819e-001,-6.19631357968788e-003
1.65128403545104e+002	4.60741605696765e-001,-6.33899809313827e-003
1.68936219920179e+002	4.60733724696625e-001,-6.48495867268914e-003
1.72831843512153e+002	4.60725476597031e-001,-6.63426985996157e-003
1.76817299131726e+002	4.60716844326739e-001,-6.78700784471779e-003
1.80894658281185e+002	4.60707810020815e-001,-6.94325049778036e-003
1.85066040231103e+002	4.60698354990536e-001,-7.10307740463664e-003
1.89333613121855e+002	4.60688459675458e-001,-7.26656989886274e-003
1.93699595090551e+002	4.60678103616506e-001,-7.43381109690446e-003
1.98166255423942e+002	4.60667265399907e-001,-7.60488593194577e-003
2.02735915737920e+002	4.60655922627030e-001,-7.77988118948986e-003
2.07410951184210e+002	4.60644051859056e-001,-7.95888554201805e-003
2.12193791684895e+002	4.60631628575625e-001,-8.14198958485662e-003
2.17086923195407e+002	4.60618627122108e-001,-8.32928587182019e-003
2.22092888996634e+002	4.60605020656383e-001,-8.52086895095075e-003
2.27214291016839e+002	4.60590781103899e-001,-8.71683540142471e-003
2.32453791184044e+002	4.60575879086752e-001,-8.91728386887127e-003
2.37814112809615e+002	4.60560283874383e-001,-9.12231510241564e-003
2.43298042003741e+002	4.60543963319059e-001,-9.33203199122884e-003
2.48908429123558e+002	4.60526883792553e-001,-9.54653960061965e-003
2.54648190254671e+002	4.60509010113639e-001,-9.76594520856946e-003
2.60520308726827e+002	4.60490305490034e-001,-9.99035834261104e-003
2.66527836664555e+002	4.60470731426098e-001,-1.02198908147955e-002
2.72673896573548e+002	4.60450247663216e-001,-1.04546567586090e-002
2.78961682963638e+002	4.60428812092007e-001,-1.06947726641361e-002
2.85394464009191e+002	4.60406380286929e-001,-1.09403573948867e-002
2.91975583247790e+002	4.60382906952954e-001,-1.11915322948574e-002
2.98708461318093e+002	4.60358343530927e-001,-1.14484211142089e-002
3.05596597737760e+002	4.60332639637784e-001,-1.17111501142941e-002
3.12643572722382e+002	4.60305742591157e-001,-1.19798480825525e-002
3.19853049046357e+002	4.60277597292596e-001,-1.22546463629216e-002
3.27228773946669e+002	4.60248146130581e-001,-1.25356788868279e-002
3.34774581070574e+002	4.60217328865297e-001,-1.28230822019737e-002
3.42494392468201e+002	4.60185082512306e-001,-1.31169954998308e-002
3.50392220631091e+002	4.60151341215706e-001,-1.34175606410844e-002
3.58472170577761e+002	4.60116036127444e-001,-1.37249221802444e-002
3.66738441987342e+002	4.60079095271658e-001,-1.40392273874210e-002
3.75195331382433e+002	4.60040443403996e-001,-1.43606262679482e-002
3.83847234362282e+002	4.60000001878409e-001,-1.46892715804652e-002
3.92698647887470e+002	4.59957688481682e-001,-1.50253188504447e-002
4.01754172617274e+002	4.59913416910613e-001,-1.53689263573218e-002
4.11018515300929e+002	4.59867098134568e-001,-1.57202552441774e-002
4.20496491224037e+002	4.59818637922809e-001,-1.60794693700175e-002
4.30193026711386e+002	4.59767938219126e-001,-1.64467354132464e-002
4.40113161687482e+002	4.59714896556337e-001,-1.68222228407952e-002
4.50262052296127e+002	4.59659405885289e-001,-1.72061039024976e-002
4.60644973580410e+002	4.59601354362145e-001,-1.75985536158272e-002
4.71267322224483e+002	4.59540625164006e-001,-1.79997497499276e-002
4.82134619358582e+002	4.59477095869530e-001,-1.84098727672570e-002
4.93252513428712e+002	4.59410639798548e-001,-1.88291059185222e-002
5.04626783132516e+002	4.59341123465326e-001,-1.92576350198367e-002
5.16263340422846e+002	4.59268407882970e-001,-1.96956485293902e-002
5.28168233580588e+002	4.59192347939079e-001,-2.01433374646010e-002
5.40347650358352e+002	4.59112792139128e-001,-2.06008953393366e-002
5.52807921196649e+002	4.59029581963491e-001,-2.10685180579068e-002
5.65555522514243e+002	4.58942553123257e-001,-2.15464039730172e-002
5.78597080074360e+002	4.58851532995433e-001,-2.20347535862860e-002
5.91939372428539e+002	4.58756341852977e-001,-2.25337695811258e-002
6.05589334439886e+002	4.58656792192834e-001,-2.30436566736502e-002
6.19554060887574e+002	4.58552688041627e-001,-2.35646214429379e-002
6.33840810154470e+002	4.58443826173766e-001,-2.40968723453785e-002
6.48457007999789e+002	4.58329993486073e-001,-2.46406193205370e-002
6.63410251418746e+002	4.58210968197468e-001,-2.51960737724707e-002
6.78708312591213e+002	4.58086518741525e-001,-2.57634482957976e-002
6.94359142921431e+002	4.57956404932932e-001,-2.63429566350565e-002
7.10370877170875e+002	4.57820375332414e-001,-2.69348132014336e-002
7.26751837686421e+002	4.57678168005391e-001,-2.75392329425225e-002
7.43510538726017e+002	4.57529511292239e-001,-2.81564312103304e-002
7.60655690884097e+002	4.57374121142575e-001,-2.87866231926589e-002
7.78196205619051e+002	4.57211701861424e-001,-2.94300237223329e-002
7.96141199885091e+002	4.57041946848653e-001,-3.00868470791654e-002
8.14500000870932e+002	4.56864535916331e-001,-3.07573063225512e-002
8.33282150847739e+002	4.56679136017944e-001,-3.14416130265199e-002
8.52497412128872e+002	4.56485401963666e-001,-3.21399770016703e-002
8.72155772144002e+002	4.56282973363681e-001,-3.28526054619656e-002
8.92267448630227e+002	4.56071477218616e-001,-3.35797029405982e-002
9.12842894942904e+002	4.55850524488841e-001,-3.43214703183283e-002
9.33892805488941e+002	4.55619712685871e-001,-3.50781046845283e-002
9.55428121285379e+002	4.55378622440292e-001,-3.58497982660405e-002
9.77460035646155e+002	4.55126820094037e-001,-3.66367382253098e-002
1.00000000000000e+003	4.54863854299976e-001,-3.74391054865884e-002
1.02305972984251e+003	4.54589258596202e-001,-3.82570744580379e-002
1.04665121082543e+003	4.54302548050378e-001,-3.90908117479983e-002
1.07078670498640e+003	4.54003221479478e-001,-3.99404757449955e-002
1.09547875712234e+003	4.53690759977745e-001,-4.08062155361758e-002
1.12074020130978e+003	4.53364625830256e-001,-4.16881698146842e-002
1.14658416757563e+003	4.53024262571709e-001,-4.25864659240277e-002
1.17302408872162e+003	4.52669096921521e-001,-4.35012192142466e-002
1.20007370730629e+003	4.52298535180894e-001,-4.44325312919815e-002
1.22774708278787e+003	4.51911964867222e-001,-4.53804891790255e-002
1.25605859883189e+003	4.51508754162670e-001,-4.63451639961371e-002
1.28502297078731e+003	4.51088251769781e-001,-4.73266096520939e-002
1.31465525333509e+003	4.50649786828074e-001,-4.83248614714864e-002
1.34497084831303e+003	4.50192668885531e-001,-4.93399347582301e-002
1.37598551272118e+003	4.49716187923700e-001,-5.03718232929551e-002
1.40771536691173e+003	4.49219614466585e-001,-5.14204977711037e-002
1.44017690296787e+003	4.48702199759890e-001,-5.24859041759158e-002
1.47338699327573e+003	4.48163175670323e-001,-5.35679619999624e-002
1.50736289929413e+003	4.47601756482053e-001,-5.46665628445332e-002
1.54212228052647e+003	4.47017137189166e-001,-5.57815680931779e-002
1.57768320369953e+003	4.46408495145442e-001,-5.69128073016408e-002
1.61406415215390e+003	4.45774991810101e-001,-5.80600765640386e-002
1.65128403545105e+003	4.45115771051368e-001,-5.92231359062688e-002
1.68936219920180e+003	4.44429962587006e-001,-6.04017079325556e-002
1.72831843512154e+003	4.43716681997561e-001,-6.15954755147502e-002
1.76817299131727e+003	4.42975030901443e-001,-6.28040794172966e-002
1.80894658281186e+003	4.42204100131504e-001,-6.40271167007459e-002
1.85066040231103e+003	4.41402971637111e-001,-6.52641387464298e-002
1.89333613121855e+003	4.40570716760587e-001,-6.65146481157723e-002
1.93699595090551e+003	4.39706403041761e-001,-6.77780979169162e-002
1.98166255423943e+003	4.38809092555986e-001,-6.90538885983008e-002
2.02735915737920e+003	4.37877845648340e-001,-7.03413663346334e-002
2.07410951184210e+003	4.36911724510318e-001,-7.16398214021218e-002
2.12193791684896e+003	4.35909793921860e-001,-7.29484856193309e-002
2.17086923195407e+003	4.34871125285743e-001,-7.42665308712719e-002
2.22092888996635e+003	4.33794800197763e-001,-7.55930675393897e-002
2.27214291016839e+003	4.32679914232973e-001,-7.69271430777218e-002
2.32453791184045e+003	4.31525578984587e-001,-7.82677400193720e-002
2.37814112809616e+003	4.30330927328007e-001,-7.96137752331730e-002
2.43298042003742e+003	4.29095116919252e-001,-8.09640986694673e-002
2.48908429123559e+003	4.27817335552881e-001,-8.23174929659211e-002
2.54648190254672e+003	4.26496805089078e-001,-8.36726726868982e-002
2.60520308726828e+003	4.25132785302210e-001,-8.50282837045687e-002
2.66527836664556e+003	4.23724580470101e-001,-8.63829039345104e-002
2.72673896573549e+003	4.22271544495798e-001,-8.77350437846681e-002
2.78961682963639e+003	4.20773084655759e-001,-8.90831463058383e-002
2.85394464009192e+003	4.19228667667421e-001,-9.04255886491459e-002
2.91975583247791e+003	4.17637827053457e-001,-9.17606845393087e-002
2.98708461318094e+003	4.16000165961138e-001,-9.30866851268948e-002
3.05596597737761e+003	4.14315364030586e-001,-9.44017820964246e-002
3.12643572722383e+003	4.12583183592243e-001,-9.57041110116573e-002
3.19853049046358e+003	4.10803474325834e-001,-9.69917544633180e-002
3.27228773946670e+003	4.08976179020909e-001,-9.82627463045967e-002
3.34774581070575e+003	4.07101338610152e-001,-9.95150761335848e-002
3.42494392468202e+003	4.05179098125843e-001,-1.00746694900952e-001
3.50392220631093e+003	4.03209710703408e-001,-1.01955520185268e-001
3.58472170577762e+003	4.01193542129291e-001,-1.03139442422145e-001
3.66738441987343e+003	3.99131075841769e-001,-1.04296332122122e-001
3.75195331382434e+003	3.97022915835116e-001,-1.05424046679230e-001
3.83847234362283e+003	3.94869789929378e-001,-1.06520438113149e-001
3.92698647887472e+003	3.92672553265834e-001,-1.07583361698565e-001
4.01754172617275e+003	3.90432189357633e-001,-1.08610683951948e-001
4.11018515300930e+003	3.88149812568915e-001,-1.09600292172455e-001
4.20496491224038e+003	3.85826667833704e-001,-1.10550103075916e-001
4.30193026711388e+003	3.83464131655404e-001,-1.11458072890765e-001
4.40113161687483e+003	3.81063710309457e-001,-1.12322206392113e-001
4.50262052296129e+003	3.78627039441908e-001,-1.13140567428509e-001
4.60644973580411e+003	3.76155879682230e-001,-1.13911287454680e-001
4.71267322224485e+003	3.73652115701709e-001,-1.14632576791377e-001
4.82134619358584e+003	3.71117750107435e-001,-1.15302732937107e-001
4.93252513428714e+003	3.68554899327838e-001,-1.15920150521864e-001
5.04626783132518e+003	3.65965787662466e-001,-1.16483330287045e-001
5.16263340422848e+003	3.63352739867317e-001,-1.16990887202004e-001
5.28168233580590e+003	3.60718174269504e-001,-1.17441558993992e-001
5.40347650358354e+003	3.58064594442425e-001,-1.17834213630382e-001
5.52807921196651e+003	3.55394579564685e-001,-1.18167855658633e-001
5.65555522514245e+003	3.52710775615350e-001,-1.18441632886258e-001
5.78597080074362e+003	3.50015883943466e-001,-1.18654840713385e-001
5.91939372428541e+003	3.47312652589136e-001,-1.18806928026283e-001
6.05589334439888e+003	3.44603863187238e-001,-1.18897499128014e-001
6.19554060887576e+003	3.41892320588295e-001,-1.18926316989862e-001
6.33840810154473e+003	3.39180841069022e-001,-1.18893304590964e-001
6.48457007999792e+003	3.36472240460786e-001,-1.18798545254974e-001
6.63410251418748e+003	3.33769323195487e-001,-1.18642282711358e-001
6.78708312591215e+003	3.31074869626431e-001,-1.18424918668304e-001
6.94359142921434e+003	3.28391625216042e-001,-1.18147010731735e-001
7.10370877170878e+003	3.25722289804504e-001,-1.17809269190416e-001
7.26751837686424e+003	3.23069506246037e-001,-1.17412552032570e-001
7.43510538726020e+003	3.20435850901312e-001,-1.16957860218556e-001
7.60655690884100e+003	3.17823823515206e-001,-1.16446331168492e-001
7.78196205619054e+003	3.15235838093742e-001,-1.15879231795148e-001
7.96141199885094e+003	3.12674215733192e-001,-1.15257951932290e-001
8.14500000870935e+003	3.10141175370827e-001,-1.14583994774002e-001
8.33282150847742e+003	3.07638828779748e-001,-1.13858969739243e-001
8.52497412128875e+003	3.05169173301158e-001,-1.13084582279408e-001
8.72155772144005e+003	3.02734087875863e-001,-1.12262625453301e-001
8.92267448630230e+003	3.00335328416854e-001,-1.11394969962486e-001
9.12842894942908e+003	2.97974524104019e-001,-1.10483554081211e-001
9.33892805488945e+003	2.95653175807594e-001,-1.09530374615197e-001
9.55428121285382e+003	2.93372653800727e-001,-1.08537476547734e-001
9.77460035646159e+003	2.91134197545020e-001,-1.07506943864618e-001
1.00000000000001e+004	2.88938915170979e-001,-1.06440889612768e-001
1.02305972984252e+004	2.86787784788732e-001,-1.05341447136765e-001
1.04665121082544e+004	2.84681655304918e-001,-1.04210760585496e-001
1.07078670498640e+004	2.82621249462454e-001,-1.03050977119600e-001
1.09547875712234e+004	2.80607165662625e-001,-1.01864237983336e-001
1.12074020130979e+004	2.78639881512012e-001,-1.00652671012934e-001
1.14658416757563e+004	2.76719758195226e-001,-9.94183839123124e-002
1.17302408872162e+004	2.74847043911924e-001,-9.81634568799571e-002
1.20007370730630e+004	2.73021878568932e-001,-9.68899365114024e-002
1.22774708278788e+004	2.71244299003425e-001,-9.55998304042623e-002
1.25605859883190e+004	2.69514243394498e-001,-9.42951014391676e-002
1.28502297078732e+004	2.67831557754926e-001,-9.29776641180110e-002
1.31465525333509e+004	2.66195999998369e-001,-9.16493793685231e-002
1.34497084831303e+004	2.64607246772590e-001,-9.03120520136617e-002
1.37598551272118e+004	2.63064898042243e-001,-8.89674269153446e-002
1.40771536691174e+004	2.61568483615310e-001,-8.76171871425555e-002
1.44017690296787e+004	2.60117467945367e-001,-8.62629512909870e-002
1.47338699327573e+004	2.58711255776901e-001,-8.49062719704023e-002
1.50736289929414e+004	2.57349198441006e-001,-8.35486352559692e-002
1.54212228052648e+004	2.56030598056286e-001,-8.21914590770781e-002
1.57768320369953e+004	2.54754713223460e-001,-8.08360932027743e-002
1.61406415215391e+004	2.53520763680210e-001,-7.94838189376016e-002
1.65128403545105e+004	2.52327935617966e-001,-7.81358497325629e-002
1.68936219920180e+004	2.51175385733815e-001,-7.67933313366848e-002
1.72831843512154e+004	2.50062246021269e-001,-7.54573428723854e-002
1.76817299131727e+004	2.48987627396271e-001,-7.41288975013600e-002
1.80894658281187e+004	2.47950624238941e-001,-7.28089440637727e-002
1.85066040231104e+004	2.46950317464356e-001,-7.14983680767835e-002
1.89333613121856e+004	2.45985778493250e-001,-7.01979936285076e-002
1.93699595090552e+004	2.45056072370737e-001,-6.89085849972515e-002
1.98166255423944e+004	2.44160260361138e-001,-6.76308482075144e-002
2.02735915737921e+004	2.43297403324906e-001,-6.63654333003613e-002
2.07410951184211e+004	2.42466563670073e-001,-6.51129359372516e-002
2.12193791684897e+004	2.41666808093191e-001,-6.38738996686309e-002
2.17086923195408e+004	2.40897209907553e-001,-6.26488180987702e-002
2.22092888996636e+004	2.40156850189188e-001,-6.14381365247512e-002
2.27214291016840e+004	2.39444820312875e-001,-6.02422544859821e-002
2.32453791184046e+004	2.38760223220553e-001,-5.90615276895995e-002
2.37814112809617e+004	2.38102174716760e-001,-5.78962700472106e-002
2.43298042003743e+004	2.37469804895055e-001,-5.67467558437059e-002
2.48908429123560e+004	2.36862258828025e-001,-5.56132215774540e-002
2.54648190254673e+004	2.36278698275538e-001,-5.44958683527678e-002
2.60520308726829e+004	2.35718301517450e-001,-5.33948633519719e-002
2.66527836664557e+004	2.35180264896116e-001,-5.23103421784490e-002
2.72673896573550e+004	2.34663802605220e-001,-5.12424103431048e-002
2.78961682963640e+004	2.34168147906207e-001,-5.01911454310803e-002
2.85394464009193e+004	2.33692552904755e-001,-4.91565985790347e-002
2.91975583247792e+004	2.33236288811642e-001,-4.81387961669465e-002
2.98708461318095e+004	2.32798646687972e-001,-4.71377416926658e-002
3.05596597737762e+004	2.32378936879803e-001,-4.61534170401636e-002
3.12643572722385e+004	2.31976489427421e-001,-4.51857841409858e-002
3.19853049046360e+004	2.31590653843712e-001,-4.42347863300745e-002
3.27228773946671e+004	2.31220799306958e-001,-4.33003498270515e-002
3.34774581070577e+004	2.30866314237995e-001,-4.23823849263482e-002
3.42494392468203e+004	2.30526606022668e-001,-4.14807872126332e-002
3.50392220631094e+004	2.30201101161088e-001,-4.05954388849305e-002
3.58472170577764e+004	2.29889244912645e-001,-3.97262098392068e-002
3.66738441987345e+004	2.29590500631678e-001,-3.88729585984642e-002
3.75195331382435e+004	2.29304349730078e-001,-3.80355334257385e-002
3.83847234362285e+004	2.29030291708007e-001,-3.72137734001192e-002
3.92698647887473e+004	2.28767842956160e-001,-3.64075090274149e-002
4.01754172617277e+004	2.28516537216334e-001,-3.56165633708725e-002
4.11018515300932e+004	2.28275924541088e-001,-3.48407526315578e-002
4.20496491224040e+004	2.28045571264994e-001,-3.40798870196395e-002
4.30193026711389e+004	2.27825059410895e-001,-3.33337713992056e-002
4.40113161687485e+004	2.27613986552959e-001,-3.26022060310404e-002
4.50262052296131e+004	2.27411965028180e-001,-3.18849870766989e-002
4.60644973580413e+004	2.27218621793749e-001,-3.11819072594556e-002
4.71267322224487e+004	2.27033597729154e-001,-3.04927563226416e-002
4.82134619358586e+004	2.26856547769319e-001,-2.98173216859988e-002
4.93252513428716e+004	2.26687139474023e-001,-2.91553886352390e-002
5.04626783132520e+004	2.26525053902358e-001,-2.85067411060207e-002
5.16263340422851e+004	2.26369984190530e-001,-2.78711618134489e-002
5.28168233580593e+004	2.26221635607560e-001,-2.72484327491386e-002
5.40347650358356e+004	2.26079725064665e-001,-2.66383355015864e-002
5.52807921196654e+004	2.25943980540317e-001,-2.60406515320548e-002
5.65555522514248e+004	2.25814141062700e-001,-2.54551625575022e-002
5.78597080074365e+004	2.25689956057896e-001,-2.48816507540502e-002
5.91939372428544e+004	2.25571185073027e-001,-2.43198990275369e-002
6.05589334439890e+004	2.25457597416479e-001,-2.37696912413899e-002
6.19554060887579e+004	2.25348971715035e-001,-2.32308124044516e-002
6.33840810154475e+004	2.25245095663344e-001,-2.27030488816535e-002
6.48457007999794e+004	2.25145765690686e-001,-2.21861885656791e-002
6.63410251418751e+004	2.25050786636895e-001,-2.16800210325429e-002
6.78708312591218e+004	2.24959971437861e-001,-2.11843376825416e-002
6.94359142921437e+004	2.24873140728717e-001,-2.06989318491335e-002
7.10370877170881e+004	2.24790122639119e-001,-2.02235989309345e-002
7.26751837686427e+004	2.24710752506321e-001,-1.97581364922762e-002
7.43510538726023e+004	2.24634872506149e-001,-1.93023443359751e-002
7.60655690884103e+004	2.24562331475659e-001,-1.88560245995841e-002
7.78196205619057e+004	2.24492984744279e-001,-1.84189818381353e-002
7.96141199885098e+004	2.24426693609612e-001,-1.79910230368673e-002
8.14500000870939e+004	2.24363325277363e-001,-1.75719576936942e-002
8.33282150847746e+004	2.24302752536590e-001,-1.71615978474514e-002
8.52497412128879e+004	2.24244853807054e-001,-1.67597581542026e-002
8.72155772144009e+004	2.24189512558015e-001,-1.63662558587224e-002
