Freq.	V(vo)
1.00000000000000e+002	(-6.72853224278588e+000dB,-4.77472768694922e-001°)
1.02305972984251e+002	(-6.72857270162238e+000dB,-4.88479758721060e-001°)
1.04665121082543e+002	(-6.72861504727807e+000dB,-4.99740326132602e-001°)
1.07078670498640e+002	(-6.72865936768003e+000dB,-5.11260301317971e-001°)
1.09547875712233e+002	(-6.72870575492746e+000dB,-5.23045647901254e-001°)
1.12074020130978e+002	(-6.72875430532511e+000dB,-5.35102465743068e-001°)
1.14658416757562e+002	(-6.72880511970657e+000dB,-5.47436993979683e-001°)
1.17302408872161e+002	(-6.72885830366047e+000dB,-5.60055614130440e-001°)
1.20007370730629e+002	(-6.72891396754198e+000dB,-5.72964853309731e-001°)
1.22774708278787e+002	(-6.72897222697557e+000dB,-5.86171387433785e-001°)
1.25605859883189e+002	(-6.72903320295326e+000dB,-5.99682044541934e-001°)
1.28502297078731e+002	(-6.72909702205665e+000dB,-6.13503808195527e-001°)
1.31465525333508e+002	(-6.72916381679355e+000dB,-6.27643820903874e-001°)
1.34497084831302e+002	(-6.72923372578842e+000dB,-6.42109387665888e-001°)
1.37598551272117e+002	(-6.72930689419729e+000dB,-6.56907979524832e-001°)
1.40771536691173e+002	(-6.72938347386745e+000dB,-6.72047237266515e-001°)
1.44017690296786e+002	(-6.72946362373161e+000dB,-6.87534975130856e-001°)
1.47338699327572e+002	(-6.72954751016020e+000dB,-7.03379184613021e-001°)
1.50736289929412e+002	(-6.72963530718575e+000dB,-7.19588038371813e-001°)
1.54212228052647e+002	(-6.72972719696158e+000dB,-7.36169894165173e-001°)
1.57768320369952e+002	(-6.72982337017949e+000dB,-7.53133298869759e-001°)
1.61406415215389e+002	(-6.72992402630737e+000dB,-7.70486992621628e-001°)
1.65128403545104e+002	(-6.73002937415422e+000dB,-7.88239912969776e-001°)
1.68936219920179e+002	(-6.73013963216006e+000dB,-8.06401199164072e-001°)
1.72831843512153e+002	(-6.73025502902040e+000dB,-8.24980196470409e-001°)
1.76817299131726e+002	(-6.73037580398886e+000dB,-8.43986460601318e-001°)
1.80894658281185e+002	(-6.73050220748146e+000dB,-8.63429762210691e-001°)
1.85066040231103e+002	(-6.73063450147172e+000dB,-8.83320091479119e-001°)
1.89333613121855e+002	(-6.73077296021440e+000dB,-9.03667662736226e-001°)
1.93699595090551e+002	(-6.73091787056490e+000dB,-9.24482919240128e-001°)
1.98166255423942e+002	(-6.73106953284043e+000dB,-9.45776537929687e-001°)
2.02735915737920e+002	(-6.73122826118385e+000dB,-9.67559434371293e-001°)
2.07410951184210e+002	(-6.73139438439356e+000dB,-9.89842767675489e-001°)
2.12193791684895e+002	(-6.73156824648029e+000dB,-1.01263794557251e+000°)
2.17086923195407e+002	(-6.73175020742910e+000dB,-1.03595662952295e+000°)
2.22092888996634e+002	(-6.73194064396064e+000dB,-1.05981073988414e+000°)
2.27214291016839e+002	(-6.73213995012555e+000dB,-1.08421246124760e+000°)
2.32453791184044e+002	(-6.73234853837871e+000dB,-1.10917424768615e+000°)
2.37814112809615e+002	(-6.73256684023417e+000dB,-1.13470882821823e+000°)
2.43298042003741e+002	(-6.73279530719562e+000dB,-1.16082921230055e+000°)
2.48908429123558e+002	(-6.73303441165238e+000dB,-1.18754869532003e+000°)
2.54648190254671e+002	(-6.73328464793616e+000dB,-1.21488086422719e+000°)
2.60520308726827e+002	(-6.73354653309234e+000dB,-1.24283960324186e+000°)
2.66527836664555e+002	(-6.73382060828423e+000dB,-1.27143909948246e+000°)
2.72673896573548e+002	(-6.73410743956668e+000dB,-1.30069384882888e+000°)
2.78961682963638e+002	(-6.73440761917717e+000dB,-1.33061866172353e+000°)
2.85394464009191e+002	(-6.73472177394007e+000dB,-1.36122866789793e+000°)
2.91975583247790e+002	(-6.73505053756343e+000dB,-1.39253932678986e+000°)
2.98708461318093e+002	(-6.73539459542788e+000dB,-1.42456642675031e+000°)
3.05596597737760e+002	(-6.73575465697457e+000dB,-1.45732609548524e+000°)
3.12643572722382e+002	(-6.73613146423422e+000dB,-1.49083480495834e+000°)
3.19853049046357e+002	(-6.73652579357048e+000dB,-1.52510937731590e+000°)
3.27228773946669e+002	(-6.73693845703205e+000dB,-1.56016699095196e+000°)
3.34774581070574e+002	(-6.73737030403109e+000dB,-1.59602518649549e+000°)
3.42494392468201e+002	(-6.73782222302456e+000dB,-1.63270187278914e+000°)
3.50392220631091e+002	(-6.73829514337500e+000dB,-1.67021533280774e+000°)
3.58472170577761e+002	(-6.73879003707603e+000dB,-1.70858422962043e+000°)
3.66738441987342e+002	(-6.73930792074116e+000dB,-1.74782761223225e+000°)
3.75195331382433e+002	(-6.73984985766771e+000dB,-1.78796492136998e+000°)
3.83847234362282e+002	(-6.74041695973917e+000dB,-1.82901599525104e+000°)
3.92698647887470e+002	(-6.74101038991703e+000dB,-1.87100107512831e+000°)
4.01754172617274e+002	(-6.74163137146856e+000dB,-1.91394080927569e+000°)
4.11018515300929e+002	(-6.74228116152797e+000dB,-1.95785626466088e+000°)
4.20496491224037e+002	(-6.74296109714521e+000dB,-2.00276892265798e+000°)
4.30193026711386e+002	(-6.74367256857880e+000dB,-2.04870069051454e+000°)
4.40113161687482e+002	(-6.74441702962506e+000dB,-2.09567390441331e+000°)
4.50262052296127e+002	(-6.74519600008942e+000dB,-2.14371133430125e+000°)
4.60644973580410e+002	(-6.74601106902781e+000dB,-2.19283618804407e+000°)
4.71267322224483e+002	(-6.74686389743067e+000dB,-2.24307211572386e+000°)
4.82134619358582e+002	(-6.74775622912529e+000dB,-2.29444321119896e+000°)
4.93252513428712e+002	(-6.74868986456725e+000dB,-2.34697402343747e+000°)
5.04626783132516e+002	(-6.74966670819490e+000dB,-2.40068954792690e+000°)
5.16263340422846e+002	(-6.75068874285668e+000dB,-2.45561523688677e+000°)
5.28168233580588e+002	(-6.75175804073686e+000dB,-2.51177699955898e+000°)
5.40347650358352e+002	(-6.75287676730691e+000dB,-2.56920120372888e+000°)
5.52807921196649e+002	(-6.75404719259025e+000dB,-2.62791467462276e+000°)
5.65555522514243e+002	(-6.75527166641470e+000dB,-2.68794470400581e+000°)
5.78597080074360e+002	(-6.75655266609548e+000dB,-2.74931903702204e+000°)
5.91939372428539e+002	(-6.75789277216867e+000dB,-2.81206587969218e+000°)
6.05589334439886e+002	(-6.75929468017995e+000dB,-2.87621389511917e+000°)
6.19554060887574e+002	(-6.76076121291375e+000dB,-2.94179219830120e+000°)
6.33840810154470e+002	(-6.76229529630935e+000dB,-3.00883036247387e+000°)
6.48457007999789e+002	(-6.76390000837482e+000dB,-3.07735839976266e+000°)
6.63410251418746e+002	(-6.76557855548454e+000dB,-3.14740676532990e+000°)
6.78708312591213e+002	(-6.76733429251776e+000dB,-3.21900634541739e+000°)
6.94359142921431e+002	(-6.76917069978946e+000dB,-3.29218845984497e+000°)
7.10370877170875e+002	(-6.77109143231372e+000dB,-3.36698483675811e+000°)
7.26751837686421e+002	(-6.77310030458622e+000dB,-3.44342760921655e+000°)
7.43510538726017e+002	(-6.77520127514060e+000dB,-3.52154931151699e+000°)
7.60655690884097e+002	(-6.77739849660997e+000dB,-3.60138284801400e+000°)
7.78196205619051e+002	(-6.77969630090743e+000dB,-3.68296148529378e+000°)
7.96141199885091e+002	(-6.78209918455397e+000dB,-3.76631884363274e+000°)
8.14500000870932e+002	(-6.78461185938418e+000dB,-3.85148885872808e+000°)
8.33282150847739e+002	(-6.78723923831344e+000dB,-3.93850576829967e+000°)
8.52497412128872e+002	(-6.78998642142578e+000dB,-4.02740409742345e+000°)
8.72155772144002e+002	(-6.79285875429539e+000dB,-4.11821860867050e+000°)
8.92267448630227e+002	(-6.79586177854112e+000dB,-4.21098429863761e+000°)
9.12842894942904e+002	(-6.79900129770528e+000dB,-4.30573633828738e+000°)
9.33892805488941e+002	(-6.80228332810184e+000dB,-4.40251006488239e+000°)
9.55428121285379e+002	(-6.80571416523945e+000dB,-4.50134091469520e+000°)
9.77460035646155e+002	(-6.80930033505514e+000dB,-4.60226440953560e+000°)
1.00000000000000e+003	(-6.81304866035782e+000dB,-4.70531608139843e+000°)
1.02305972984251e+003	(-6.81696621291744e+000dB,-4.81053145230300e+000°)
1.04665121082543e+003	(-6.82106037980558e+000dB,-4.91794595008261e+000°)
1.07078670498640e+003	(-6.82533882295044e+000dB,-5.02759487714449e+000°)
1.09547875712234e+003	(-6.82980951007225e+000dB,-5.13951333640658e+000°)
1.12074020130978e+003	(-6.83448073875410e+000dB,-5.25373615514623e+000°)
1.14658416757563e+003	(-6.83936113896557e+000dB,-5.37029781584569e+000°)
1.17302408872162e+003	(-6.84445963975618e+000dB,-5.48923240520049e+000°)
1.20007370730629e+003	(-6.84978554362453e+000dB,-5.61057349131745e+000°)
1.22774708278787e+003	(-6.85534850032397e+000dB,-5.73435405635680e+000°)
1.25605859883189e+003	(-6.86115852360660e+000dB,-5.86060639693710e+000°)
1.28502297078731e+003	(-6.86722600086148e+000dB,-5.98936202251162e+000°)
1.31465525333509e+003	(-6.87356170239124e+000dB,-6.12065154724691e+000°)
1.34497084831303e+003	(-6.88017679050754e+000dB,-6.25450457496702e+000°)
1.37598551272118e+003	(-6.88708282853455e+000dB,-6.39094957680214e+000°)
1.40771536691173e+003	(-6.89429178919576e+000dB,-6.53001376180104e+000°)
1.44017690296787e+003	(-6.90181606271721e+000dB,-6.67172293972104e+000°)
1.47338699327573e+003	(-6.90966847160838e+000dB,-6.81610137013887e+000°)
1.50736289929413e+003	(-6.91786224939217e+000dB,-6.96317163160724e+000°)
1.54212228052647e+003	(-6.92641108949452e+000dB,-7.11295442696458e+000°)
1.57768320369953e+003	(-6.93532912962561e+000dB,-7.26546842948408e+000°)
1.61406415215390e+003	(-6.94463093549086e+000dB,-7.42073012212876e+000°)
1.65128403545105e+003	(-6.95433155414250e+000dB,-7.57875356881138e+000°)
1.68936219920180e+003	(-6.96444646733621e+000dB,-7.73955025979570e+000°)
1.72831843512154e+003	(-6.97499161431044e+000dB,-7.90312888903824e+000°)
1.76817299131727e+003	(-6.98598341337982e+000dB,-8.06949512012707e+000°)
1.80894658281186e+003	(-6.99743872546768e+000dB,-8.23865139486746e+000°)
1.85066040231103e+003	(-7.00937484460297e+000dB,-8.41059670961457e+000°)
1.89333613121855e+003	(-7.02180956335921e+000dB,-8.58532630709749e+000°)
1.93699595090551e+003	(-7.03476106888906e+000dB,-8.76283152180899e+000°)
1.98166255423943e+003	(-7.04824801105586e+000dB,-8.94309944886595e+000°)
2.02735915737920e+003	(-7.06228946407029e+000dB,-9.12611270574358e+000°)
2.07410951184210e+003	(-7.07690489280902e+000dB,-9.31184918288985e+000°)
2.12193791684896e+003	(-7.09211417876113e+000dB,-9.50028172182762e+000°)
2.17086923195407e+003	(-7.10793758097983e+000dB,-9.69137785217836e+000°)
2.22092888996635e+003	(-7.12439570801049e+000dB,-9.88509951016048e+000°)
2.27214291016839e+003	(-7.14150948687332e+000dB,-1.00814027540521e+001°)
2.32453791184045e+003	(-7.15930016979531e+000dB,-1.02802374285383e+001°)
2.37814112809616e+003	(-7.17778927574416e+000dB,-1.04815468978155e+001°)
2.43298042003742e+003	(-7.19699856951585e+000dB,-1.06852677308051e+001°)
2.48908429123559e+003	(-7.21695000285380e+000dB,-1.08913294294546e+001°)
2.54648190254672e+003	(-7.23766568592922e+000dB,-1.10996541178753e+001°)
2.60520308726828e+003	(-7.25916786108348e+000dB,-1.13101562261570e+001°)
2.66527836664556e+003	(-7.28147881837144e+000dB,-1.15227422505687e+001°)
2.72673896573549e+003	(-7.30462084103219e+000dB,-1.17373104803449e+001°)
2.78961682963639e+003	(-7.32861617945347e+000dB,-1.19537506902117e+001°)
2.85394464009192e+003	(-7.35348697407363e+000dB,-1.21719439074140e+001°)
2.91975583247791e+003	(-7.37925514716154e+000dB,-1.23917622358382e+001°)
2.98708461318094e+003	(-7.40594239005974e+000dB,-1.26130685575379e+001°)
3.05596597737761e+003	(-7.43357005914906e+000dB,-1.28357163777188e+001°)
3.12643572722383e+003	(-7.46215908118851e+000dB,-1.30595496774432e+001°)
3.19853049046358e+003	(-7.49172988712650e+000dB,-1.32844027453585e+001°)
3.27228773946670e+003	(-7.52230231543562e+000dB,-1.35101000794020e+001°)
3.34774581070575e+003	(-7.55389552438840e+000dB,-1.37364563025896e+001°)
3.42494392468202e+003	(-7.58652787516475e+000dB,-1.39632761579256e+001°)
3.50392220631093e+003	(-7.62021684981986e+000dB,-1.41903544826973e+001°)
3.58472170577762e+003	(-7.65497894713495e+000dB,-1.44174762559386e+001°)
3.66738441987343e+003	(-7.69082955655792e+000dB,-1.46444167268298e+001°)
3.75195331382434e+003	(-7.72778286836899e+000dB,-1.48709415276739e+001°)
3.83847234362283e+003	(-7.76585176273795e+000dB,-1.50968068725630e+001°)
3.92698647887472e+003	(-7.80504767931156e+000dB,-1.53217598427964e+001°)
4.01754172617275e+003	(-7.84538052977835e+000dB,-1.55455386551716e+001°)
4.11018515300930e+003	(-7.88685856130558e+000dB,-1.57678730758881e+001°)
4.20496491224038e+003	(-7.92948827005002e+000dB,-1.59884848079758e+001°)
4.30193026711388e+003	(-7.97327426747350e+000dB,-1.62070880306085e+001°)
4.40113161687483e+003	(-8.01821919807739e+000dB,-1.64233899102693e+001°)
4.50262052296129e+003	(-8.06432360602088e+000dB,-1.66370912791963e+001°)
4.60644973580411e+003	(-8.11158588420194e+000dB,-1.68478872259463e+001°)
4.71267322224485e+003	(-8.16000212073332e+000dB,-1.70554679581231e+001°)
4.82134619358584e+003	(-8.20956605938376e+000dB,-1.72595195149858e+001°)
4.93252513428714e+003	(-8.26026899502280e+000dB,-1.74597246815201e+001°)
5.04626783132518e+003	(-8.31209970160127e+000dB,-1.76557639095550e+001°)
5.16263340422848e+003	(-8.36504438580700e+000dB,-1.78473162573883e+001°)
5.28168233580590e+003	(-8.41908661576093e+000dB,-1.80340604493816e+001°)
5.40347650358354e+003	(-8.47420727777983e+000dB,-1.82156759455969e+001°)
5.52807921196651e+003	(-8.53038456144408e+000dB,-1.83918440122876e+001°)
5.65555522514245e+003	(-8.58759391679062e+000dB,-1.85622489130022e+001°)
5.78597080074362e+003	(-8.64580808057943e+000dB,-1.87265790037100e+001°)
5.91939372428541e+003	(-8.70499702626127e+000dB,-1.88845280454942e+001°)
6.05589334439888e+003	(-8.76512803920647e+000dB,-1.90357962841037e+001°)
6.19554060887576e+003	(-8.82616572217037e+000dB,-1.91800917207875e+001°)
6.33840810154473e+003	(-8.88807204857181e+000dB,-1.93171313059534e+001°)
6.48457007999792e+003	(-8.95080642992844e+000dB,-1.94466421225863e+001°)
6.63410251418748e+003	(-9.01432577071067e+000dB,-1.95683626141107e+001°)
6.78708312591215e+003	(-9.07858459128141e+000dB,-1.96820436590992e+001°)
6.94359142921434e+003	(-9.14353511629823e+000dB,-1.97874497240292e+001°)
7.10370877170878e+003	(-9.20912738271435e+000dB,-1.98843599583285e+001°)
7.26751837686424e+003	(-9.27530939223152e+000dB,-1.99725691638657e+001°)
7.43510538726020e+003	(-9.34202723474470e+000dB,-2.00518888025122e+001°)
7.60655690884100e+003	(-9.40922525965835e+000dB,-2.01221478513450e+001°)
7.78196205619054e+003	(-9.47684624765375e+000dB,-2.01831936074546e+001°)
7.96141199885094e+003	(-9.54483155259080e+000dB,-2.02348925084748e+001°)
8.14500000870935e+003	(-9.61312134240324e+000dB,-2.02771306487503e+001°)
8.33282150847742e+003	(-9.68165473814860e+000dB,-2.03098144693089e+001°)
8.52497412128875e+003	(-9.75037005899255e+000dB,-2.03328711090569e+001°)
8.72155772144005e+003	(-9.81920499356280e+000dB,-2.03462488482690e+001°)
8.92267448630230e+003	(-9.88809682478496e+000dB,-2.03499173282511e+001°)
9.12842894942908e+003	(-9.95698265640922e+000dB,-2.03438676673180e+001°)
9.33892805488945e+003	(-1.00257995983393e+001dB,-2.03281125735631e+001°)
9.55428121285382e+003	(-1.00944850038752e+001dB,-2.03026862233446e+001°)
9.77460035646159e+003	(-1.01629766632033e+001dB,-2.02676441362858e+001°)
1.00000000000001e+004	(-1.02312130311881e+001dB,-2.02230628534339e+001°)
1.02305972984252e+004	(-1.02991334136843e+001dB,-2.01690396042910e+001°)
1.04665121082544e+004	(-1.03666781897746e+001dB,-2.01056917711344e+001°)
1.07078670498640e+004	(-1.04337889722986e+001dB,-2.00331563915945e+001°)
1.09547875712234e+004	(-1.05004088239100e+001dB,-1.99515894163780e+001°)
1.12074020130979e+004	(-1.05664824228896e+001dB,-1.98611649786733e+001°)
1.14658416757563e+004	(-1.06319562059700e+001dB,-1.97620746161248e+001°)
1.17302408872162e+004	(-1.06967785488280e+001dB,-1.96545263008514e+001°)
1.20007370730630e+004	(-1.07608999031015e+001dB,-1.95387434805427e+001°)
1.22774708278788e+004	(-1.08242729125285e+001dB,-1.94149640792328e+001°)
1.25605859883190e+004	(-1.08868525545620e+001dB,-1.92834393571521e+001°)
1.28502297078732e+004	(-1.09485961995328e+001dB,-1.91444328883521e+001°)
1.31465525333509e+004	(-1.10094637498809e+001dB,-1.89982192852499e+001°)
1.34497084831303e+004	(-1.10694176670456e+001dB,-1.88450831256820e+001°)
1.37598551272118e+004	(-1.11284230688501e+001dB,-1.86853176655328e+001°)
1.40771536691174e+004	(-1.11864477407756e+001dB,-1.85192237084032e+001°)
1.44017690296787e+004	(-1.12434621959849e+001dB,-1.83471083307599e+001°)
1.47338699327573e+004	(-1.12994396876857e+001dB,-1.81692836918001e+001°)
1.50736289929414e+004	(-1.13543561795583e+001dB,-1.79860659184866e+001°)
1.54212228052648e+004	(-1.14081903770338e+001dB,-1.77977738510518e+001°)
1.57768320369953e+004	(-1.14609236843549e+001dB,-1.76047279518756e+001°)
1.61406415215391e+004	(-1.15125401824037e+001dB,-1.74072491792099e+001°)
1.65128403545105e+004	(-1.15630265631644e+001dB,-1.72056579683318e+001°)
1.68936219920180e+004	(-1.16123720940400e+001dB,-1.70002731743714e+001°)
1.72831843512154e+004	(-1.16605685364602e+001dB,-1.67914111397530e+001°)
1.76817299131727e+004	(-1.17076100917007e+001dB,-1.65793847423867e+001°)
1.80894658281187e+004	(-1.17534932952768e+001dB,-1.63645025882215e+001°)
1.85066040231104e+004	(-1.17982169518127e+001dB,-1.61470681692919e+001°)
1.89333613121856e+004	(-1.18417820206717e+001dB,-1.59273791675817e+001°)
1.93699595090552e+004	(-1.18841915202261e+001dB,-1.57057267750312e+001°)
1.98166255423944e+004	(-1.19254504394280e+001dB,-1.54823950555950e+001°)
2.02735915737921e+004	(-1.19655656073379e+001dB,-1.52576604437955e+001°)
2.07410951184211e+004	(-1.20045456066616e+001dB,-1.50317912196663e+001°)
2.12193791684897e+004	(-1.20424006470541e+001dB,-1.48050471174013e+001°)
2.17086923195408e+004	(-1.20791424455104e+001dB,-1.45776789782512e+001°)
2.22092888996636e+004	(-1.21147841446971e+001dB,-1.43499283971905e+001°)
2.27214291016840e+004	(-1.21493401707944e+001dB,-1.41220275334722e+001°)
2.32453791184046e+004	(-1.21828261345256e+001dB,-1.38941989019474e+001°)
2.37814112809617e+004	(-1.22152587262735e+001dB,-1.36666552311009e+001°)
2.43298042003743e+004	(-1.22466556021144e+001dB,-1.34395993885976e+001°)
2.48908429123560e+004	(-1.22770352951766e+001dB,-1.32132243174033e+001°)
2.54648190254673e+004	(-1.23064170850570e+001dB,-1.29877130861398e+001°)
2.60520308726829e+004	(-1.23348209382684e+001dB,-1.27632388734331e+001°)
2.66527836664557e+004	(-1.23622673812025e+001dB,-1.25399651006137e+001°)
2.72673896573550e+004	(-1.23887774406849e+001dB,-1.23180455002064e+001°)
2.78961682963640e+004	(-1.24143725290615e+001dB,-1.20976243045940e+001°)
2.85394464009193e+004	(-1.24390743856781e+001dB,-1.18788363854625e+001°)
2.91975583247792e+004	(-1.24629050004668e+001dB,-1.16618074503629e+001°)
2.98708461318095e+004	(-1.24858865198701e+001dB,-1.14466542913660e+001°)
3.05596597737762e+004	(-1.25080412052922e+001dB,-1.12334849853040e+001°)
3.12643572722385e+004	(-1.25293913554466e+001dB,-1.10223991656814e+001°)
3.19853049046360e+004	(-1.25499592552289e+001dB,-1.08134882784356e+001°)
3.27228773946671e+004	(-1.25697671106674e+001dB,-1.06068358713653e+001°)
3.34774581070577e+004	(-1.25888370101455e+001dB,-1.04025178638936e+001°)
3.42494392468203e+004	(-1.26071908823728e+001dB,-1.02006028341832e+001°)
3.50392220631094e+004	(-1.26248504402534e+001dB,-1.00011523312107e+001°)
3.58472170577764e+004	(-1.26418371468892e+001dB,-9.80422116726318e+000°)
3.66738441987345e+004	(-1.26581721961939e+001dB,-9.60985769934032e+000°)
3.75195331382435e+004	(-1.26738764716345e+001dB,-9.41810413974695e+000°)
3.83847234362285e+004	(-1.26889705048302e+001dB,-9.22899686719364e+000°)
3.92698647887473e+004	(-1.27034744844884e+001dB,-9.04256668312841e+000°)
4.01754172617277e+004	(-1.27174082031733e+001dB,-8.85883913528386e+000°)
4.11018515300932e+004	(-1.27307910649010e+001dB,-8.67783477348256e+000°)
4.20496491224040e+004	(-1.27436420556259e+001dB,-8.49956944169789e+000°)
4.30193026711389e+004	(-1.27559797379365e+001dB,-8.32405454099347e+000°)
4.40113161687485e+004	(-1.27678222300816e+001dB,-8.15129730291441e+000°)
4.50262052296131e+004	(-1.27791872124128e+001dB,-7.98130103035383e+000°)
4.60644973580413e+004	(-1.27900919105934e+001dB,-7.81406535521757e+000°)
4.71267322224487e+004	(-1.28005531022885e+001dB,-7.64958646673649e+000°)
4.82134619358586e+004	(-1.28105870932101e+001dB,-7.48785736093580e+000°)
4.93252513428716e+004	(-1.28202097557434e+001dB,-7.32886802645474e+000°)
