Freq.	V(vo)	V(vo1)	V(vo2)	Ib(Q3)
1.00000000000000e+002	(2.34448549292182e+001dB,1.79073828819533e+002°)	(-4.66008512705731e+001dB,-4.89576589826024e-001°)	(2.34452379045338e+001dB,1.79073898995720e+002°)	(-1.52230242296093e+002dB,1.90027378507486e-002°)
1.02305972984251e+002	(2.34448021070025e+001dB,1.79052475399861e+002°)	(-4.66008922805072e+001dB,-5.00862661990699e-001°)	(2.34451850823190e+001dB,1.79052547194293e+002°)	(-1.52230242268318e+002dB,1.94409352348843e-002°)
1.04665121082543e+002	(2.34447468212409e+001dB,1.79030629847689e+002°)	(-4.66009352026487e+001dB,-5.12408745084449e-001°)	(2.34451297965584e+001dB,1.79030703297681e+002°)	(-1.52230242239173e+002dB,1.98892372854203e-002°)
1.07078670498640e+002	(2.34446889570889e+001dB,1.79008280833786e+002°)	(-4.66009801265496e+001dB,-5.24220817685294e-001°)	(2.34450719324074e+001dB,1.79008355977515e+002°)	(-1.52230242208724e+002dB,2.03478770125773e-002°)
1.09547875712233e+002	(2.34446283943151e+001dB,1.78985416769043e+002°)	(-4.66010271450866e+001dB,-5.36304995062430e-001°)	(2.34450113696347e+001dB,1.78985493645566e+002°)	(-1.52230242176830e+002dB,2.08170928012240e-002°)
1.12074020130978e+002	(2.34445650071362e+001dB,1.78962025798552e+002°)	(-4.66010763565984e+001dB,-5.48667532141986e-001°)	(2.34449479824569e+001dB,1.78962104447827e+002°)	(-1.52230242143496e+002dB,2.12971285213289e-002°)
1.14658416757562e+002	(2.34444986638827e+001dB,1.78938095795601e+002°)	(-4.66011278634236e+001dB,-5.61314826720630e-001°)	(2.34448816392046e+001dB,1.78938176258507e+002°)	(-1.52230242108486e+002dB,2.17882336770534e-002°)
1.17302408872161e+002	(2.34444292266432e+001dB,1.78913614355517e+002°)	(-4.66011817704566e+001dB,-5.74253422757786e-001°)	(2.34448122019663e+001dB,1.78913696673876e+002°)	(-1.52230242072001e+002dB,2.22906635247617e-002°)
1.20007370730629e+002	(2.34443565513133e+001dB,1.78888568789341e+002°)	(-4.66012381922789e+001dB,-5.87490013255596e-001°)	(2.34447395266378e+001dB,1.78888653005938e+002°)	(-1.52230242033708e+002dB,2.28046792064350e-002°)
1.22774708278787e+002	(2.34442804869400e+001dB,1.78862946117435e+002°)	(-4.66012972459247e+001dB,-6.01031443996602e-001°)	(2.34446634622658e+001dB,1.78863032276044e+002°)	(-1.52230241993693e+002dB,2.33305478776595e-002°)
1.25605859883189e+002	(2.34442008754400e+001dB,1.78836733062917e+002°)	(-4.66013590519621e+001dB,-6.14884716908729e-001°)	(2.34445838507672e+001dB,1.78836821208321e+002°)	(-1.52230241951786e+002dB,2.38685428624881e-002°)
1.28502297078731e+002	(2.34441175515378e+001dB,1.78809916044916e+002°)	(-4.66014237399866e+001dB,-6.29056993227633e-001°)	(2.34445005268665e+001dB,1.78810006222929e+002°)	(-1.52230241907868e+002dB,2.44189437778599e-002°)
1.31465525333508e+002	(2.34440303421475e+001dB,1.78782481171751e+002°)	(-4.66014914433687e+001dB,-6.43555597357822e-001°)	(2.34444133174778e+001dB,1.78782573429245e+002°)	(-1.52230241862014e+002dB,2.49820367136680e-002°)
1.34497084831302e+002	(2.34439390662765e+001dB,1.78754414233897e+002°)	(-4.66015623047742e+001dB,-6.58388020164596e-001°)	(2.34443220416085e+001dB,1.78754508618823e+002°)	(-1.52230241813959e+002dB,2.55581143271402e-002°)
1.37598551272117e+002	(2.34438435342810e+001dB,1.78725700696880e+002°)	(-4.66016364690032e+001dB,-6.73561923123485e-001°)	(2.34442265096146e+001dB,1.78725797258297e+002°)	(-1.52230241763638e+002dB,2.61474760271288e-002°)
1.40771536691173e+002	(2.34437435478705e+001dB,1.78696325693924e+002°)	(-4.66017140912986e+001dB,-6.89085141574150e-001°)	(2.34441265232060e+001dB,1.78696424482022e+002°)	(-1.52230241710986e+002dB,2.67504281468327e-002°)
1.44017690296786e+002	(2.34436388994654e+001dB,1.78666274018523e+002°)	(-4.66017953329730e+001dB,-7.04965688848425e-001°)	(2.34440218748027e+001dB,1.78666375084648e+002°)	(-1.52230241655925e+002dB,2.73672840584269e-002°)
1.47338699327572e+002	(2.34435293717278e+001dB,1.78635530116828e+002°)	(-4.66018803609112e+001dB,-7.21211760243689e-001°)	(2.34439123470671e+001dB,1.78635633513510e+002°)	(-1.52230241598263e+002dB,2.79983643845040e-002°)
1.50736289929412e+002	(2.34434147373561e+001dB,1.78604078079837e+002°)	(-4.66019693528912e+001dB,-7.37831736666101e-001°)	(2.34437977126975e+001dB,1.78604183860818e+002°)	(-1.52230241537883e+002dB,2.86439971270958e-002°)
1.54212228052647e+002	(2.34432947584408e+001dB,1.78571901635482e+002°)	(-4.66020624943560e+001dB,-7.54834188932145e-001°)	(2.34436777337843e+001dB,1.78572009855744e+002°)	(-1.52230241474674e+002dB,2.93045178384747e-002°)
1.57768320369952e+002	(2.34431691858784e+001dB,1.78538984140537e+002°)	(-4.66021599768617e+001dB,-7.72227882056399e-001°)	(2.34435521612241e+001dB,1.78539094856330e+002°)	(-1.52230241408561e+002dB,2.99802698286486e-002°)
1.61406415215389e+002	(2.34430377591107e+001dB,1.78505308572308e+002°)	(-4.66022620037280e+001dB,-7.90021779087563e-001°)	(2.34434207344588e+001dB,1.78505421841177e+002°)	(-1.52230241339356e+002dB,3.06716043205057e-002°)
1.65128403545104e+002	(2.34429002053624e+001dB,1.78470857520223e+002°)	(-4.66023687857544e+001dB,-8.08225045751514e-001°)	(2.34432831807129e+001dB,1.78470973401042e+002°)	(-1.52230241266955e+002dB,3.13788806265208e-002°)
1.68936219920179e+002	(2.34427562392480e+001dB,1.78435613177189e+002°)	(-4.66024805452533e+001dB,-8.26847054555841e-001°)	(2.34431392146011e+001dB,1.78435731730187e+002°)	(-1.52230241191160e+002dB,3.21024663468092e-002°)
1.72831843512153e+002	(2.34426055620731e+001dB,1.78399557330815e+002°)	(-4.66025975140097e+001dB,-8.45897389437797e-001°)	(2.34429885374290e+001dB,1.78399678617614e+002°)	(-1.52230241111739e+002dB,3.28427375646932e-002°)
1.76817299131726e+002	(2.34424478612036e+001dB,1.78362671354451e+002°)	(-4.66027199337730e+001dB,-8.65385850308287e-001°)	(2.34428308365623e+001dB,1.78362795438091e+002°)	(-1.52230241028680e+002dB,3.36000790184360e-002°)
1.80894658281185e+002	(2.34422828095155e+001dB,1.78324936198017e+002°)	(-4.66028480584016e+001dB,-8.85322457537255e-001°)	(2.34426657848771e+001dB,1.78325063142991e+002°)	(-1.52230240941844e+002dB,3.43748843375048e-002°)
1.85066040231103e+002	(2.34421100647111e+001dB,1.78286332378668e+002°)	(-4.66029821543946e+001dB,-9.05717456644788e-001°)	(2.34424930400758e+001dB,1.78286462250959e+002°)	(-1.52230240850887e+002dB,3.51675562152208e-002°)
1.89333613121855e+002	(2.34419292684767e+001dB,1.78246839971309e+002°)	(-4.66031224983889e+001dB,-9.26581323349213e-001°)	(2.34423122438447e+001dB,1.78246972838420e+002°)	(-1.52230240755681e+002dB,3.59785066421774e-002°)
1.93699595090551e+002	(2.34417400459899e+001dB,1.78206438598838e+002°)	(-4.66032693829913e+001dB,-9.47924767966975e-001°)	(2.34421230213612e+001dB,1.78206574529829e+002°)	(-1.52230240655964e+002dB,3.68081570744758e-002°)
1.98166255423942e+002	(2.34415420048354e+001dB,1.78165107422315e+002°)	(-4.66034231107350e+001dB,-9.69758740950731e-001°)	(2.34419249802103e+001dB,1.78165246487838e+002°)	(-1.52230240551694e+002dB,3.76569387402757e-002°)
2.02735915737920e+002	(2.34413347345295e+001dB,1.78122825130808e+002°)	(-4.66035840016171e+001dB,-9.92094437285563e-001°)	(2.34417177099081e+001dB,1.78122967403145e+002°)	(-1.52230240442523e+002dB,3.85252927595954e-002°)
2.07410951184210e+002	(2.34411178053817e+001dB,1.78079569931182e+002°)	(-4.66037523876732e+001dB,-1.01494330215808e+000°)	(2.34415007807642e+001dB,1.78079715484279e+002°)	(-1.52230240328316e+002dB,3.94136704353618e-002°)
2.12193791684895e+002	(2.34408907678152e+001dB,1.78035319537575e+002°)	(-4.66039286178033e+001dB,-1.03831703575170e+000°)	(2.34412737432018e+001dB,1.78035468447088e+002°)	(-1.52230240208710e+002dB,4.03225335119362e-002°)
2.17086923195407e+002	(2.34406531514198e+001dB,1.77990051160743e+002°)	(-4.66041130579316e+001dB,-1.06222759855400e+000°)	(2.34410361268107e+001dB,1.77990203504069e+002°)	(-1.52230240083569e+002dB,4.12523543240198e-002°)
2.22092888996634e+002	(2.34404044637793e+001dB,1.77943741497237e+002°)	(-4.66043060876158e+001dB,-1.08668721712359e+000°)	(2.34407874391746e+001dB,1.77943897353559e+002°)	(-1.52230239952524e+002dB,4.22036161388895e-002°)
2.27214291016839e+002	(2.34401441898981e+001dB,1.77896366718238e+002°)	(-4.66045081096630e+001dB,-1.11170838859333e+000°)	(2.34405271652980e+001dB,1.77896526168564e+002°)	(-1.52230239815462e+002dB,4.31768133516961e-002°)
2.32453791184044e+002	(2.34398717906185e+001dB,1.77847902458418e+002°)	(-4.66047195401753e+001dB,-1.13730388728706e+000°)	(2.34402547660233e+001dB,1.77848065585626e+002°)	(-1.52230239671964e+002dB,4.41724517343763e-002°)
2.37814112809615e+002	(2.34395867018138e+001dB,1.77798323804409e+002°)	(-4.66049408154814e+001dB,-1.16348676966310e+000°)	(2.34399696772238e+001dB,1.77798490693286e+002°)	(-1.52230239521751e+002dB,4.51910487787006e-002°)
2.43298042003741e+002	(2.34392883333938e+001dB,1.77747605283099e+002°)	(-4.66051723960553e+001dB,-1.19027037959118e+000°)	(2.34396713088091e+001dB,1.77747776020388e+002°)	(-1.52230239364492e+002dB,4.62331338295731e-002°)
2.48908429123558e+002	(2.34389760676583e+001dB,1.77695720849870e+002°)	(-4.66054147589102e+001dB,-1.21766835502101e+000°)	(2.34393590430792e+001dB,1.77695895524315e+002°)	(-1.52230239200006e+002dB,4.72992484967047e-002°)
2.54648190254671e+002	(2.34386492583561e+001dB,1.77642643876462e+002°)	(-4.66056684046263e+001dB,-1.24569463308344e+000°)	(2.34390322337829e+001dB,1.77642822578853e+002°)	(-1.52230239027864e+002dB,4.83899468647644e-002°)
2.60520308726827e+002	(2.34383072294167e+001dB,1.77588347138689e+002°)	(-4.66059338597678e+001dB,-1.27436345573485e+000°)	(2.34386902048496e+001dB,1.77588529961909e+002°)	(-1.52230238847622e+002dB,4.95057957431327e-002°)
2.66527836664555e+002	(2.34379492732226e+001dB,1.77532802804068e+002°)	(-4.66062116704771e+001dB,-1.30368937656420e+000°)	(2.34383322486619e+001dB,1.77532989843141e+002°)	(-1.52230238659007e+002dB,5.06473750804907e-002°)
2.72673896573548e+002	(2.34375746494927e+001dB,1.77475982419069e+002°)	(-4.66065024105053e+001dB,-1.33368726591226e+000°)	(2.34379576249387e+001dB,1.77476173771212e+002°)	(-1.52230238461589e+002dB,5.18152781708557e-002°)
2.78961682963638e+002	(2.34371825837327e+001dB,1.77417856896268e+002°)	(-4.66068066812598e+001dB,-1.36437231699555e+000°)	(2.34375655591858e+001dB,1.77418052660940e+002°)	(-1.52230238254933e+002dB,5.30101119722706e-002°)
2.85394464009191e+002	(2.34367722582995e+001dB,1.77358396502459e+002°)	(-4.66071250312826e+001dB,-1.39576006283297e+000°)	(2.34371552371279e+001dB,1.77358596781412e+002°)	(-1.52230238038698e+002dB,5.42324974184428e-002°)
2.91975583247790e+002	(2.34363428398285e+001dB,1.77297570840880e+002°)	(-4.66074582773154e+001dB,-1.42786633999295e+000°)	(2.34367258186646e+001dB,1.77297775738211e+002°)	(-1.52230237812448e+002dB,5.54830697876945e-002°)
2.98708461318093e+002	(2.34358934339086e+001dB,1.77235348844532e+002°)	(-4.66078070259274e+001dB,-1.46070735791047e+000°)	(2.34362764127528e+001dB,1.77235558466739e+002°)	(-1.52230237575455e+002dB,5.67624790193737e-002°)
3.05596597737760e+002	(2.34354231124437e+001dB,1.77171698758061e+002°)	(-4.66081719963524e+001dB,-1.49429966293776e+000°)	(2.34358060912963e+001dB,1.77171913214100e+002°)	(-1.52230237327567e+002dB,5.80713899845829e-002°)
3.12643572722382e+002	(2.34349309045135e+001dB,1.77106588125068e+002°)	(-4.66085539424136e+001dB,-1.52866015485890e+000°)	(2.34353138833749e+001dB,1.77106807526405e+002°)	(-1.52230237068195e+002dB,5.94104829305168e-002°)
3.19853049046357e+002	(2.34344157942115e+001dB,1.77039983774196e+002°)	(-4.66089536496032e+001dB,-1.56380609374192e+000°)	(2.34347987730821e+001dB,1.77040208234869e+002°)	(-1.52230236796635e+002dB,6.07804537606538e-002°)
3.27228773946669e+002	(2.34338767187882e+001dB,1.76971851804930e+002°)	(-4.66093719408119e+001dB,-1.59975510554727e+000°)	(2.34342596976686e+001dB,1.76972081441605e+002°)	(-1.52230236512375e+002dB,6.21820144113028e-002°)
3.34774581070574e+002	(2.34333125665008e+001dB,1.76902157573290e+002°)	(-4.66098096776976e+001dB,-1.63652518835568e+000°)	(2.34336955453913e+001dB,1.76902392505325e+002°)	(-1.52230236214910e+002dB,6.36158932458187e-002°)
3.42494392468201e+002	(2.34327221743483e+001dB,1.76830865677378e+002°)	(-4.66102677618562e+001dB,-1.67413471863425e+000°)	(2.34331051532494e+001dB,1.76831106026881e+002°)	(-1.52230235903638e+002dB,6.50828354140381e-002°)
3.50392220631091e+002	(2.34321043256312e+001dB,1.76757939942805e+002°)	(-4.66107471344065e+001dB,-1.71260245776670e+000°)	(2.34324873045433e+001dB,1.76758185834702e+002°)	(-1.52230235577852e+002dB,6.65836032500373e-002°)
3.58472170577761e+002	(2.34314577476552e+001dB,1.76683343407897e+002°)	(-4.66112487809079e+001dB,-1.75194755770152e+000°)	(2.34318407265790e+001dB,1.76683594969995e+002°)	(-1.52230235236795e+002dB,6.81189766240544e-002°)
3.66738441987342e+002	(2.34307811091203e+001dB,1.76607038308843e+002°)	(-4.66117737319344e+001dB,-1.79218956725669e+000°)	(2.34311640880562e+001dB,1.76607295671894e+002°)	(-1.52230234879900e+002dB,6.96897534328175e-002°)
3.75195331382433e+002	(2.34300730174517e+001dB,1.76528986064708e+002°)	(-4.66123230648368e+001dB,-1.83334843819442e+000°)	(2.34304559964004e+001dB,1.76529249362482e+002°)	(-1.52230234506425e+002dB,7.12967499292011e-002°)
3.83847234362282e+002	(2.34293320160873e+001dB,1.76449147262316e+002°)	(-4.66128979075477e+001dB,-1.87544453087349e+000°)	(2.34297149950492e+001dB,1.76449416631665e+002°)	(-1.52230234115488e+002dB,7.29408012032138e-002°)
3.92698647887470e+002	(2.34285565814967e+001dB,1.76367481641105e+002°)	(-4.66134994385706e+001dB,-1.91849862049093e+000°)	(2.34289395604726e+001dB,1.76367757222038e+002°)	(-1.52230233706374e+002dB,7.46227615418962e-002°)
4.01754172617274e+002	(2.34277451129717e+001dB,1.76283948079436e+002°)	(-4.66141288114776e+001dB,-1.96253191743345e+000°)	(2.34281280953301e+001dB,1.76284230015190e+002°)	(-1.52230233278158e+002dB,7.63435050069132e-002°)
4.11018515300929e+002	(2.34268959584387e+001dB,1.76198504572956e+002°)	(-4.66147874753371e+001dB,-2.00756601357600e+000°)	(2.34272789408123e+001dB,1.76198793010073e+002°)	(-1.52230232830054e+002dB,7.81039257044523e-002°)
4.20496491224037e+002	(2.34260073675276e+001dB,1.76111108228773e+002°)	(-4.66154766960560e+001dB,-2.05362297699600e+000°)	(2.34263903499173e+001dB,1.76111403317171e+002°)	(-1.52230232361067e+002dB,7.99049384316239e-002°)
4.30193026711386e+002	(2.34250775175524e+001dB,1.76021715243638e+002°)	(-4.66161978867096e+001dB,-2.10072529672454e+000°)	(2.34254604999588e+001dB,1.76022017136694e+002°)	(-1.52230231870242e+002dB,8.17474790046759e-002°)
4.40113161687482e+002	(2.34241045020615e+001dB,1.75930280890415e+002°)	(-4.66169525177935e+001dB,-2.14889590498537e+000°)	(2.34244874844855e+001dB,1.75930589745043e+002°)	(-1.52230231356510e+002dB,8.36325048579212e-002°)
4.50262052296127e+002	(2.34230863277242e+001dB,1.75836759502478e+002°)	(-4.66177421330584e+001dB,-2.19815817943458e+000°)	(2.34234693101664e+001dB,1.75837075479210e+002°)	(-1.52230230818948e+002dB,8.55609954602985e-002°)
4.60644973580410e+002	(2.34220209098549e+001dB,1.75741104458704e+002°)	(-4.66185683406149e+001dB,-2.24853595022225e+000°)	(2.34224038923163e+001dB,1.75741427721773e+002°)	(-1.52230230256339e+002dB,8.75339528584429e-002°)
4.71267322224483e+002	(2.34209060689295e+001dB,1.75643268168012e+002°)	(-4.66194328281865e+001dB,-2.30005350173150e+000°)	(2.34212890514110e+001dB,1.75643598885439e+002°)	(-1.52230229667500e+002dB,8.95524021513788e-002°)
4.82134619358582e+002	(2.34197395183977e+001dB,1.75543202056546e+002°)	(-4.66203372719470e+001dB,-2.35273559774217e+000°)	(2.34201225042681e+001dB,1.75543540400228e+002°)	(-1.52230229051242e+002dB,9.16173921736163e-002°)
4.93252513428712e+002	(2.34185188900398e+001dB,1.75440856544775e+002°)	(-4.66212836754756e+001dB,-2.40660741001160e+000°)	(2.34189018759322e+001dB,1.75441202690569e+002°)	(-1.52230228406340e+002dB,9.37299957722706e-002°)
5.04626783132516e+002	(2.34172416852381e+001dB,1.75336181044410e+002°)	(-4.66222738811860e+001dB,-2.46169463106707e+000°)	(2.34176246711535e+001dB,1.75336535172233e+002°)	(-1.52230227731461e+002dB,9.58913106066641e-002°)
5.16263340422846e+002	(2.34159052994262e+001dB,1.75229123936270e+002°)	(-4.66233098985244e+001dB,-2.51802340524295e+000°)	(2.34162882853657e+001dB,1.75229486230184e+002°)	(-1.52230227025072e+002dB,9.81024596471748e-002°)
5.28168233580588e+002	(2.34145070099390e+001dB,1.75119632557856e+002°)	(-4.66243938299305e+001dB,-2.57562034811384e+000°)	(2.34148899959037e+001dB,1.75120003206169e+002°)	(-1.52230226285857e+002dB,1.00364591638209e-001°)
5.40347650358352e+002	(2.34130439705751e+001dB,1.75007653189560e+002°)	(-4.66255278700943e+001dB,-2.63451254949937e+000°)	(2.34134269565662e+001dB,1.75008032384922e+002°)	(-1.52230225512349e+002dB,1.02678881887794e-001°)
5.52807921196649e+002	(2.34115131991076e+001dB,1.74893131043213e+002°)	(-4.66267142336317e+001dB,-2.69472759453793e+000°)	(2.34118961884943e+001dB,1.74893518982716e+002°)	(-1.52230224702784e+002dB,1.05046532713090e-001°)
5.65555522514243e+002	(2.34099116005283e+001dB,1.74776010240285e+002°)	(-4.66279554768793e+001dB,-2.75629348287877e+000°)	(2.34102945899439e+001dB,1.74776407125567e+002°)	(-1.52230223855576e+002dB,1.07468774202912e-001°)
5.78597080074360e+002	(2.34082359178626e+001dB,1.74656233812133e+002°)	(-4.66292540264305e+001dB,-2.81923875007625e+000°)	(2.34086189073084e+001dB,1.74656639849482e+002°)	(-1.52230222968894e+002dB,1.09946864669006e-001°)
5.91939372428539e+002	(2.34064827547689e+001dB,1.74533743679427e+002°)	(-4.66306124974113e+001dB,-2.88359238737512e+000°)	(2.34068657442464e+001dB,1.74534159079885e+002°)	(-1.52230222041102e+002dB,1.12482091516456e-001°)
6.05589334439886e+002	(2.34046485622033e+001dB,1.74408480642610e+002°)	(-4.66320336237635e+001dB,-2.94938385889491e+000°)	(2.34050315517139e+001dB,1.74408905622090e+002°)	(-1.52230221070105e+002dB,1.15075771755563e-001°)
6.19554060887574e+002	(2.34027296243751e+001dB,1.74280384373636e+002°)	(-4.66335201790863e+001dB,-3.01664312354806e+000°)	(2.34031126172883e+001dB,1.74280819153026e+002°)	(-1.52230220053999e+002dB,1.17729252686386e-001°)
6.33840810154470e+002	(2.34007220811537e+001dB,1.74149393395911e+002°)	(-4.66350753077448e+001dB,-3.08540053794217e+000°)	(2.34011050741032e+001dB,1.74149838201195e+002°)	(-1.52230218990761e+002dB,1.20443912772250e-001°)
6.48457007999789e+002	(2.33986218770486e+001dB,1.74015445089864e+002°)	(-4.66367020415120e+001dB,-3.15568699188674e+000°)	(2.33990048700361e+001dB,1.74015900152236e+002°)	(-1.52230217877958e+002dB,1.23221162042846e-001°)
6.63410251418746e+002	(2.33964247831221e+001dB,1.73878475674715e+002°)	(-4.66384036318965e+001dB,-3.22753380998656e+000°)	(2.33968077761494e+001dB,1.73878941230701e+002°)	(-1.52230216713628e+002dB,1.26062443131783e-001°)
6.78708312591213e+002	(2.33941263747548e+001dB,1.73738420206253e+002°)	(-4.66401833945610e+001dB,-3.30097279337124e+000°)	(2.33945093711917e+001dB,1.73738896497832e+002°)	(-1.52230215495226e+002dB,1.28969231885864e-001°)
6.94359142921431e+002	(2.33917220524862e+001dB,1.73595212560005e+002°)	(-4.66420450322703e+001dB,-3.37603611193480e+000°)	(2.33921050489667e+001dB,1.73595699834737e+002°)	(-1.52230214220188e+002dB,1.31943038024391e-001°)
7.10370877170875e+002	(2.33892069905420e+001dB,1.73448785441962e+002°)	(-4.66439921660217e+001dB,-3.45275644388781e+000°)	(2.33895899870681e+001dB,1.73449283953116e+002°)	(-1.52230212885829e+002dB,1.34985406153040e-001°)
7.26751837686421e+002	(2.33865761498076e+001dB,1.73299070377301e+002°)	(-4.66460285773877e+001dB,-3.53116689377237e+000°)	(2.33869591497494e+001dB,1.73299580383985e+002°)	(-1.52230211489723e+002dB,1.38097916345621e-001°)
7.43510538726017e+002	(2.33838242905811e+001dB,1.73145997699347e+002°)	(-4.66481584542613e+001dB,-3.61130089728633e+000°)	(2.33842072905728e+001dB,1.73146519466644e+002°)	(-1.52230210028707e+002dB,1.41282185084790e-001°)
7.60655690884097e+002	(2.33809459201431e+001dB,1.72989496565765e+002°)	(-4.66503859210983e+001dB,-3.69319236716968e+000°)	(2.33813289201871e+001dB,1.72990030364873e+002°)	(-1.52230208499903e+002dB,1.44539866119506e-001°)
