Freq.	V(vo)	V(vo1)	V(vo2)	Ib(Q3)
1.00000000000000e+002	-1.48657218898362e+001,2.40321410026124e-001	4.67672229183036e-003,-3.99622711411618e-005	-1.48663776530295e+001,2.40313798008819e-001	2.44617690355128e-008,8.11299899122948e-012
1.02305972984251e+002	-1.48655408893508e+001,2.45860166460631e-001	4.67669224857854e-003,-4.08832939676611e-005	-1.48661966582930e+001,2.45852379007243e-001	2.44617690509732e-008,8.30008231221467e-012
1.04665121082543e+002	-1.48653514496659e+001,2.51526433523635e-001	4.67666080471798e-003,-4.18255202126676e-005	-1.48660072246249e+001,2.51518466595376e-001	2.44617690673620e-008,8.49147970546649e-012
1.07078670498640e+002	-1.48651531775621e+001,2.57323136608069e-001	4.67662789476377e-003,-4.27894363332523e-005	-1.48658089588185e+001,2.57314986073493e-001	2.44617690843569e-008,8.68729065201996e-012
1.09547875712233e+002	-1.48649456614582e+001,2.63253267505121e-001	4.67659345063938e-003,-4.37755398358740e-005	-1.48656014493056e+001,2.63244929138022e-001	2.44617691022166e-008,8.88761692776302e-012
1.12074020130978e+002	-1.48647284707048e+001,2.69319885865669e-001	4.67655740048863e-003,-4.47843395009226e-005	-1.48653842654504e+001,2.69311355342929e-001	2.44617691207713e-008,9.09256265024173e-012
1.14658416757562e+002	-1.48645011545698e+001,2.75526120680637e-001	4.67651966942444e-003,-4.58163556446145e-005	-1.48651569565353e+001,2.75517393580033e-001	2.44617691405338e-008,9.30223434271927e-012
1.17302408872161e+002	-1.48642632411660e+001,2.81875171788823e-001	4.67648018026540e-003,-4.68721203878154e-005	-1.48649190506879e+001,2.81866243586782e-001	2.44617691607733e-008,9.51674098383936e-012
1.20007370730629e+002	-1.48640142370508e+001,2.88370311440170e-001	4.67643884965467e-003,-4.79521778445453e-005	-1.48646700544814e+001,2.88361177509474e-001	2.44617691822566e-008,9.73619406562345e-012
1.22774708278787e+002	-1.48637536255969e+001,2.95014885844675e-001	4.67639559191007e-003,-4.90570844558063e-005	-1.48644094513049e+001,2.95005541452121e-001	2.44617692045572e-008,9.96070764708552e-012
1.25605859883189e+002	-1.48634808659804e+001,3.01812316774210e-001	4.67635031839582e-003,-5.01874092498952e-005	-1.48641367003516e+001,3.01802757078216e-001	2.44617692279726e-008,1.01903984210937e-011
1.28502297078731e+002	-1.48631953925210e+001,3.08766103210202e-001	4.67630293451669e-003,-5.13437340588157e-005	-1.48638512359592e+001,3.08756323258360e-001	2.44617692526374e-008,1.04253857671466e-011
1.31465525333508e+002	-1.48628966130439e+001,3.15879822984945e-001	4.67625334249516e-003,-5.25266538517422e-005	-1.48635524659717e+001,3.15869817711527e-001	2.44617692781339e-008,1.06657918280750e-011
1.34497084831302e+002	-1.48625839081095e+001,3.23157134489252e-001	4.67620143834655e-003,-5.37367769590029e-005	-1.48632397709692e+001,3.23146898712655e-001	2.44617693049933e-008,1.09117415509792e-011
1.37598551272117e+002	-1.48622566291046e+001,3.30601778365406e-001	4.67614711567893e-003,-5.49747254410484e-005	-1.48629125023592e+001,3.30591306785550e-001	2.44617693331737e-008,1.11633627652645e-011
1.40771536691173e+002	-1.48619140975893e+001,3.38217579284918e-001	4.67609026116243e-003,-5.62411352895759e-005	-1.48625699817231e+001,3.38206866480582e-001	2.44617693626255e-008,1.14207862566187e-011
1.44017690296786e+002	-1.48615556035022e+001,3.46008447710992e-001	4.67603075682322e-003,-5.75366567760441e-005	-1.48622114990223e+001,3.45997488137101e-001	2.44617693933160e-008,1.16841458159641e-011
1.47338699327572e+002	-1.48611804036358e+001,3.53978381703968e-001	4.67596848024803e-003,-5.88619547643193e-005	-1.48618363110727e+001,3.53967169688813e-001	2.44617694255291e-008,1.19535783298789e-011
1.50736289929412e+002	-1.48607877205257e+001,3.62131468779236e-001	4.67590330165402e-003,-6.02177089557055e-005	-1.48614436404347e+001,3.62119998521646e-001	2.44617694593249e-008,1.22292238354305e-011
1.54212228052647e+002	-1.48603767405572e+001,3.70471887762454e-001	4.67583508555751e-003,-6.16046142424262e-005	-1.48610326735194e+001,3.70460153328902e-001	2.44617694947300e-008,1.25112255931833e-011
1.57768320369952e+002	-1.48599466121352e+001,3.79003910679146e-001	4.67576369153730e-003,-6.30233810498381e-005	-1.48606025587589e+001,3.78991906000797e-001	2.44617695316615e-008,1.27997301757468e-011
1.61406415215389e+002	-1.48594964443725e+001,3.87731904702945e-001	4.67568897111806e-003,-6.44747355888525e-005	-1.48601524052941e+001,3.87719623572644e-001	2.44617695703387e-008,1.30948875342280e-011
1.65128403545104e+002	-1.48590253048809e+001,3.96660334092496e-001	4.67561076999734e-003,-6.59594202428791e-005	-1.48596812807665e+001,3.96647770161693e-001	2.44617696107278e-008,1.33968510733907e-011
1.68936219920179e+002	-1.48585322181540e+001,4.05793762190570e-001	4.67552892579287e-003,-6.74781938493489e-005	-1.48591882097007e+001,4.05780908966179e-001	2.44617696530472e-008,1.37057777364815e-011
1.72831843512153e+002	-1.48580161633839e+001,4.15136853426367e-001	4.67544326905495e-003,-6.90318320683536e-005	-1.48586721713212e+001,4.15123704267572e-001	2.44617696975961e-008,1.40218280886451e-011
1.76817299131726e+002	-1.48574760723494e+001,4.24694375353449e-001	4.67535362291192e-003,-7.06211277229744e-005	-1.48581320974407e+001,4.24680923468429e-001	2.44617697440334e-008,1.43451663898293e-011
1.80894658281185e+002	-1.48569108273967e+001,4.34471200724159e-001	4.67525980182280e-003,-7.22468911191216e-005	-1.48575668704409e+001,4.34457439166764e-001	2.44617697923608e-008,1.46759606962043e-011
1.85066040231103e+002	-1.48563192591422e+001,4.44472309580977e-001	4.67516161119323e-003,-7.39099503918934e-005	-1.48569753209753e+001,4.44458231247327e-001	2.44617698431417e-008,1.50143829340337e-011
1.89333613121855e+002	-1.48557001438545e+001,4.54702791358958e-001	4.67505884862039e-003,-7.56111519051275e-005	-1.48563562253515e+001,4.54688388983979e-001	2.44617698963062e-008,1.53606089986214e-011
1.93699595090551e+002	-1.48550522013809e+001,4.65167847050807e-001	4.67495130064843e-003,-7.73513605249939e-005	-1.48557083034575e+001,4.65153113204698e-001	2.44617699521489e-008,1.57148188267382e-011
1.98166255423942e+002	-1.48543740920092e+001,4.75872791337295e-001	4.67483874590912e-003,-7.91314600856993e-005	-1.48550302156233e+001,4.75857718421929e-001	2.44617700103147e-008,1.60771965268628e-011
2.02735915737920e+002	-1.48536644143106e+001,4.86823054805668e-001	4.67472095095009e-003,-8.09523536407904e-005	-1.48543205604650e+001,4.86807635050920e-001	2.44617700712998e-008,1.64479304312939e-011
2.07410951184210e+002	-1.48529217017923e+001,4.98024186121930e-001	4.67459767303324e-003,-8.28149639302655e-005	-1.48535778715363e+001,4.98008411581940e-001	2.44617701349700e-008,1.68272132194595e-011
2.12193791684895e+002	-1.48521444202711e+001,5.09481854274057e-001	4.67446865741160e-003,-8.47202336809480e-005	-1.48528006147026e+001,5.09465716823417e-001	2.44617702018102e-008,1.72152420291268e-011
2.17086923195407e+002	-1.48513309647254e+001,5.21201850807608e-001	4.67433363711189e-003,-8.66691259864059e-005	-1.48519871849932e+001,5.21185342137483e-001	2.44617702716434e-008,1.76122185191067e-011
2.22092888996634e+002	-1.48504796556940e+001,5.33190092053070e-001	4.67419233462123e-003,-8.86626247575797e-005	-1.48511359030006e+001,5.33173203667249e-001	2.44617703449219e-008,1.80183490162704e-011
2.27214291016839e+002	-1.48495887366297e+001,5.45452621440859e-001	4.67404445657069e-003,-9.07017349363520e-005	-1.48502450122330e+001,5.45435344651724e-001	2.44617704213438e-008,1.84338445979439e-011
2.32453791184044e+002	-1.48486563694553e+001,5.57995611711329e-001	4.67388969894114e-003,-9.27874830739323e-005	-1.48493126746718e+001,5.57977937635767e-001	2.44617705014502e-008,1.88589211993517e-011
2.37814112809615e+002	-1.48476806313682e+001,5.70825367228691e-001	4.67372774317858e-003,-9.49209175991526e-005	-1.48483369675754e+001,5.70807286783923e-001	2.44617705853539e-008,1.92937997591524e-011
2.43298042003741e+002	-1.48466595112461e+001,5.83948326285141e-001	4.67355825392375e-003,-9.71031091341266e-005	-1.48473158798854e+001,5.83929830184481e-001	2.44617706732789e-008,1.97387062767551e-011
2.48908429123558e+002	-1.48455909048585e+001,5.97371063327943e-001	4.67338088293486e-003,-9.93351510453845e-005	-1.48462473074381e+001,5.97352142076490e-001	2.44617707649986e-008,2.01938719876309e-011
2.54648190254671e+002	-1.48444726111952e+001,6.11100291278954e-001	4.67319526513073e-003,-1.01618159703593e-004	-1.48451290492933e+001,6.11080935169204e-001	2.44617708609475e-008,2.06595334539386e-011
2.60520308726827e+002	-1.48433023281490e+001,6.25142863815642e-001	4.67300101710767e-003,-1.03953274827580e-004	-1.48439588034168e+001,6.25123062923033e-001	2.44617709615683e-008,2.11359326706601e-011
2.66527836664555e+002	-1.48420776473221e+001,6.39505777582688e-001	4.67279774039363e-003,-1.06341660022537e-004	-1.48427341614873e+001,6.39485521761074e-001	2.44617710667829e-008,2.16233172421477e-011
2.72673896573548e+002	-1.48407960497787e+001,6.54196174481076e-001	4.67258501693019e-003,-1.08784503005413e-004	-1.48414526046491e+001,6.54175453358129e-001	2.44617711769192e-008,2.21219404708833e-011
2.78961682963638e+002	-1.48394549009615e+001,6.69221343885749e-001	4.67236240884035e-003,-1.11283015995921e-004	-1.48401114984285e+001,6.69200146858287e-001	2.44617712922715e-008,2.26320614931834e-011
2.85394464009191e+002	-1.48380514328988e+001,6.84588723960644e-001	4.67212950150434e-003,-1.13838438038528e-004	-1.48387080806945e+001,6.84567040455381e-001	2.44617714128331e-008,2.31539454120041e-011
2.91975583247790e+002	-1.48365827883608e+001,7.00305907271817e-001	4.67188573071692e-003,-1.16452027743164e-004	-1.48372394828020e+001,7.00283725950197e-001	2.44617715388149e-008,2.36878634549408e-011
2.98708461318093e+002	-1.48350459407488e+001,7.16380637764740e-001	4.67163063965274e-003,-1.19125075007906e-004	-1.48357026840017e+001,7.16357947302465e-001	2.44617716712019e-008,2.42340931099026e-011
3.05596597737760e+002	-1.48334377379161e+001,7.32820816266815e-001	4.67136370504692e-003,-1.21858893788730e-004	-1.48340945322470e+001,7.32797605089382e-001	2.44617718093157e-008,2.47929182383272e-011
3.12643572722382e+002	-1.48317548835779e+001,7.49634501665648e-001	4.67108437892265e-003,-1.24654824295788e-004	-1.48324117313578e+001,7.49610757943345e-001	2.44617719536442e-008,2.53646292676433e-011
3.19853049046357e+002	-1.48299939305058e+001,7.66829912836467e-001	4.67079208989988e-003,-1.27514233436291e-004	-1.48306508342151e+001,7.66805624479309e-001	2.44617721049577e-008,2.59495233101060e-011
3.27228773946669e+002	-1.48281512741172e+001,7.84415430565039e-001	4.67048623984401e-003,-1.30438515023596e-004	-1.48288082363509e+001,7.84390585217642e-001	2.44617722634151e-008,2.65479043226405e-011
3.34774581070574e+002	-1.48262231454320e+001,8.02399599357564e-001	4.67016620284908e-003,-1.33429090083532e-004	-1.48268801689048e+001,8.02374184393967e-001	2.44617724291113e-008,2.71600832756989e-011
3.42494392468201e+002	-1.48242056037001e+001,8.20791129156604e-001	4.66983132431691e-003,-1.36487407154578e-004	-1.48248626912519e+001,8.20765131675029e-001	2.44617726023406e-008,2.77863783070248e-011
3.50392220631091e+002	-1.48220945285900e+001,8.39598896940297e-001	4.66948092087706e-003,-1.39614942622446e-004	-1.48227516831915e+001,8.39572303757865e-001	2.44617727836293e-008,2.84271148915540e-011
3.58472170577761e+002	-1.48198856124797e+001,8.58831948254295e-001	4.66911427743086e-003,-1.42813200885328e-004	-1.48205428372383e+001,8.58804745901690e-001	2.44617729735832e-008,2.90826259915327e-011
3.66738441987342e+002	-1.48175743520619e+001,8.78499498579752e-001	4.66873064651810e-003,-1.46083714623504e-004	-1.48182316502283e+001,8.78471673295844e-001	2.44617731721942e-008,2.97532522650488e-011
3.75195331382433e+002	-1.48151560397010e+001,8.98610934571389e-001	4.66832924703411e-003,-1.49428045016212e-004	-1.48158134146751e+001,8.98582472297820e-001	2.44617733798770e-008,3.04393422080037e-011
3.83847234362282e+002	-1.48126257545571e+001,9.19175815157391e-001	4.66790926183823e-003,-1.52847781871155e-004	-1.48132832098955e+001,9.19146701533120e-001	2.44617735973607e-008,3.11412523594103e-011
3.92698647887470e+002	-1.48099783530949e+001,9.40203872438034e-001	4.66746983739983e-003,-1.56344543847869e-004	-1.48106358925171e+001,9.40174092793862e-001	2.44617738248196e-008,3.18593474539872e-011
4.01754172617274e+002	-1.48072084471293e+001,9.61705011215366e-001	4.66701012395470e-003,-1.59919981205578e-004	-1.48078660802669e+001,9.61674550941380e-001	2.44617740629375e-008,3.25940006701224e-011
4.11018515300929e+002	-1.48043104429846e+001,9.83689314343411e-001	4.66652910311384e-003,-1.63575765237934e-004	-1.48049681681644e+001,9.83658157773147e-001	2.44617743119156e-008,3.33455937438574e-011
4.20496491224037e+002	-1.48012784567255e+001,1.00616703579195e+000	4.66602584442278e-003,-1.67313604357242e-004	-1.48019362782027e+001,1.00613516729885e+000	2.44617745724502e-008,3.41145172461829e-011
4.30193026711386e+002	-1.47981063532579e+001,1.02914860557533e+000	4.66549932761998e-003,-1.71135233235282e-004	-1.47987642754828e+001,1.02911600920261e+000	2.44617748450267e-008,3.49011707222722e-011
4.40113161687482e+002	-1.47947877215729e+001,1.05264462821575e+000	4.66494849039725e-003,-1.75042415846776e-004	-1.47954457491993e+001,1.05261128767087e+000	2.44617751303502e-008,3.57059629478196e-011
4.50262052296127e+002	-1.47913158639844e+001,1.07666588238820e+000	4.66437221947103e-003,-1.79036944922626e-004	-1.47919740018788e+001,1.07663178103737e+000	2.44617754286019e-008,3.65293121058535e-011
4.60644973580410e+002	-1.47876837828744e+001,1.10122331997028e+000	4.66376935491089e-003,-1.83120642252406e-004	-1.47883420361255e+001,1.10118844083296e+000	2.44617757406815e-008,3.73716460204460e-011
4.71267322224483e+002	-1.47838841689300e+001,1.12632806502727e+000	4.66313868150289e-003,-1.87295358035009e-004	-1.47845425428588e+001,1.12629239077076e+000	2.44617760672796e-008,3.82334023580990e-011
4.82134619358582e+002	-1.47799093744331e+001,1.15199141065637e+000	4.66247897715134e-003,-1.91562974414667e-004	-1.47805678803336e+001,1.15195492403714e+000	2.44617764089748e-008,3.91150289195531e-011
4.93252513428712e+002	-1.47757514500444e+001,1.17822482304298e+000	4.66178883069698e-003,-1.95925391703386e-004	-1.47764100880011e+001,1.17818750557129e+000	2.44617767663173e-008,4.00169837582716e-011
5.04626783132516e+002	-1.47714020557138e+001,1.20503993030815e+000	4.66106690334797e-003,-2.00384547629538e-004	-1.47720608318078e+001,1.20500176356291e+000	2.44617771400269e-008,4.09397355222037e-011
5.16263340422846e+002	-1.47668524955563e+001,1.23244852546518e+000	4.66031175222850e-003,-2.04942403991009e-004	-1.47675114161449e+001,1.23240949065197e+000	2.44617775312524e-008,4.18837636672988e-011
5.28168233580588e+002	-1.47620936904385e+001,1.26046256169232e+000	4.65952186956857e-003,-2.09600949164342e-004	-1.47627527621674e+001,1.26042263963838e+000	2.44617779403718e-008,4.28495586532167e-011
5.40347650358352e+002	-1.47571161617691e+001,1.28909414839273e+000	4.65869568258592e-003,-2.14362197665537e-004	-1.47577753915849e+001,1.28905331954198e+000	2.44617783680434e-008,4.38376222822365e-011
5.52807921196649e+002	-1.47519100031772e+001,1.31835554511815e+000	4.65783159167175e-003,-2.19228192954450e-004	-1.47525694040605e+001,1.31831379003768e+000	2.44617788155932e-008,4.48484678903021e-011
5.65555522514243e+002	-1.47464649124561e+001,1.34825916307069e+000	4.65692779760176e-003,-2.24200991996403e-004	-1.47471244862741e+001,1.34821646092394e+000	2.44617792836780e-008,4.58826206702859e-011
5.78597080074360e+002	-1.47407701007960e+001,1.37881754951625e+000	4.65598255339443e-003,-2.29282686050048e-004	-1.47414298554797e+001,1.37877387956943e+000	2.44617797734689e-008,4.69406178668714e-011
5.91939372428539e+002	-1.47348143233056e+001,1.41004338775741e+000	4.65499399337380e-003,-2.34475385350162e-004	-1.47354742671432e+001,1.40999872887531e+000	2.44617802854025e-008,4.80230091459177e-011
6.05589334439886e+002	-1.47285858485643e+001,1.44194948832334e+000	4.65396016995849e-003,-2.39781221257268e-004	-1.47292459902166e+001,1.44190381896536e+000	2.44617808210072e-008,4.91303568166013e-011
6.19554060887574e+002	-1.47220724268696e+001,1.47454877895327e+000	4.65287909542486e-003,-2.45202349257711e-004	-1.47227327810943e+001,1.47450207774147e+000	2.44617813810751e-008,5.02632361202704e-011
6.33840810154470e+002	-1.47152613198168e+001,1.50785430311197e+000	4.65174856439159e-003,-2.50740930709942e-004	-1.47159218903578e+001,1.50780654712505e+000	2.44617819665202e-008,5.14222356051286e-011
6.48457007999789e+002	-1.47081392059078e+001,1.54187919887790e+000	4.65056641165612e-003,-2.56399156197295e-004	-1.47088000026425e+001,1.54183036533798e+000	2.44617825791867e-008,5.26079573002174e-011
6.63410251418746e+002	-1.47006922090771e+001,1.57663669542874e+000	4.64933033401257e-003,-2.62179227087978e-004	-1.47013532423235e+001,1.57658676113941e+000	2.44617832193590e-008,5.38210171532690e-011
6.78708312591213e+002	-1.46929058526900e+001,1.61214009714343e+000	4.64803797283647e-003,-2.68083362175010e-004	-1.46935671389224e+001,1.61208903911246e+000	2.44617838887200e-008,5.50620452972395e-011
6.94359142921431e+002	-1.46847650859426e+001,1.64840277845536e+000	4.64668674122266e-003,-2.74113777656975e-004	-1.46854266307173e+001,1.64835057203126e+000	2.44617845887495e-008,5.63316863286025e-011
7.10370877170875e+002	-1.46762541886034e+001,1.68543815747331e+000	4.64527407376001e-003,-2.80272711316900e-004	-1.46769160036752e+001,1.68538477819150e+000	2.44617853209998e-008,5.76305997409718e-011
7.26751837686421e+002	-1.46673567841771e+001,1.72325968603016e+000	4.64379729663560e-003,-2.86562407179731e-004	-1.46680188875078e+001,1.72320510966878e+000	2.44617860860149e-008,5.89594601710643e-011
7.43510538726017e+002	-1.46580558525233e+001,1.76188083920557e+000	4.64225349627919e-003,-2.92985097908218e-004	-1.46587182512382e+001,1.76182503979518e+000	2.44617868861201e-008,6.03189578071095e-011
7.60655690884097e+002	-1.46483336332255e+001,1.80131508394272e+000	4.64063976936904e-003,-2.99543030229848e-004	-1.46489963407042e+001,1.80125803574152e+000	2.44617877225300e-008,6.17097987483244e-011
7.78196205619051e+002	-1.46381716373890e+001,1.84157586511334e+000	4.63895309140571e-003,-3.06238447807222e-004	-1.46388346732732e+001,1.84151754266852e+000	2.44617885963775e-008,6.31327053127109e-011
7.96141199885091e+002	-1.46275506587921e+001,1.88267659080587e+000	4.63719018524059e-003,-3.13073571813840e-004	-1.46282140319793e+001,1.88261696682847e+000	2.44617895102693e-008,6.45884164664958e-011
8.14500000870932e+002	-1.46164506759787e+001,1.92463059503194e+000	4.63534777245827e-003,-3.20050627747634e-004	-1.46171144016811e+001,1.92456964250996e+000	2.44617904653743e-008,6.60776881713761e-011
8.33282150847739e+002	-1.46048508630755e+001,1.96745111901873e+000	4.63342244022376e-003,-3.27171826263692e-004	-1.46055149628290e+001,1.96738881128455e+000	2.44617914634011e-008,6.76012937981875e-011
8.52497412128872e+002	-1.45927295995251e+001,2.01115129133872e+000	4.63141051168623e-003,-3.34439341972125e-004	-1.45933940842231e+001,2.01108759980099e+000	2.44617925063688e-008,6.91600245266680e-011
8.72155772144002e+002	-1.45800643601425e+001,2.05574408136307e+000	4.62930833626498e-003,-3.41855346788415e-004	-1.45807292527131e+001,2.05567897856407e+000	2.44617935960835e-008,7.07546897370925e-011
8.92267448630227e+002	-1.45668317845266e+001,2.10124228755731e+000	4.62711194823986e-003,-3.49421960308792e-004	-1.45674970973293e+001,2.10117574405839e+000	2.44617947350065e-008,7.23861174226500e-011
9.12842894942904e+002	-1.45530075550557e+001,2.14765848327862e+000	4.62481739971474e-003,-3.57141289643315e-004	-1.45536733125221e+001,2.14759047085665e+000	2.44617959246736e-008,7.40551546247876e-011
9.33892805488941e+002	-1.45385664661254e+001,2.19500500130601e+000	4.62242041843855e-003,-3.65015376834807e-004	-1.45392326821975e+001,2.19493548970125e+000	2.44617971677491e-008,7.57626678721788e-011
