Freq.	V(vo)
1.00000000000000e-001	(-1.46900119705494e+002dB,-1.79976742932146e+002°)
1.02305972984251e-001	(-1.46900119672112e+002dB,-1.79976206630505e+002°)
1.04665121082543e-001	(-1.46900119637173e+002dB,-1.79975657961898e+002°)
1.07078670498640e-001	(-1.46900119600604e+002dB,-1.79975096641145e+002°)
1.09547875712233e-001	(-1.46900119562328e+002dB,-1.79974522376493e+002°)
1.12074020130978e-001	(-1.46900119522268e+002dB,-1.79973934869458e+002°)
1.14658416757562e-001	(-1.46900119480338e+002dB,-1.79973333814675e+002°)
1.17302408872161e-001	(-1.46900119436452e+002dB,-1.79972718899738e+002°)
1.20007370730629e-001	(-1.46900119389852e+002dB,-1.79972089805036e+002°)
1.22774708278787e-001	(-1.46900119341776e+002dB,-1.79971446203586e+002°)
1.25605859883189e-001	(-1.46900119291458e+002dB,-1.79970787760867e+002°)
1.28502297078731e-001	(-1.46900119238792e+002dB,-1.79970114134646e+002°)
1.31465525333508e-001	(-1.46900119183668e+002dB,-1.79969424974794e+002°)
1.34497084831302e-001	(-1.46900119125974e+002dB,-1.79968719923111e+002°)
1.37598551272117e-001	(-1.46900119065588e+002dB,-1.79967998613137e+002°)
1.40771536691173e-001	(-1.46900119002384e+002dB,-1.79967260669960e+002°)
1.44017690296786e-001	(-1.46900118936233e+002dB,-1.79966505710024e+002°)
1.47338699327572e-001	(-1.46900118866995e+002dB,-1.79965733340928e+002°)
1.50736289929412e-001	(-1.46900118794527e+002dB,-1.79964943161223e+002°)
1.54212228052647e-001	(-1.46900118718678e+002dB,-1.79964134760200e+002°)
1.57768320369952e-001	(-1.46900118639291e+002dB,-1.79963307717683e+002°)
1.61406415215389e-001	(-1.46900118556201e+002dB,-1.79962461603805e+002°)
1.65128403545104e-001	(-1.46900118469234e+002dB,-1.79961595978786e+002°)
1.68936219920179e-001	(-1.46900118378210e+002dB,-1.79960710392707e+002°)
1.72831843512153e-001	(-1.46900118282940e+002dB,-1.79959804385271e+002°)
1.76817299131726e-001	(-1.46900118183225e+002dB,-1.79958877485569e+002°)
1.80894658281186e-001	(-1.46900118078859e+002dB,-1.79957929211833e+002°)
1.85066040231103e-001	(-1.46900117969623e+002dB,-1.79956959071184e+002°)
1.89333613121855e-001	(-1.46900117855292e+002dB,-1.79955966559380e+002°)
1.93699595090551e-001	(-1.46900117735627e+002dB,-1.79954951160549e+002°)
1.98166255423942e-001	(-1.46900117610380e+002dB,-1.79953912346925e+002°)
2.02735915737920e-001	(-1.46900117479289e+002dB,-1.79952849578570e+002°)
2.07410951184210e-001	(-1.46900117341416e+002dB,-1.79951762303102e+002°)
2.12193791684895e-001	(-1.46900117197810e+002dB,-1.79950649955387e+002°)
2.17086923195407e-001	(-1.46900117047503e+002dB,-1.79949511957273e+002°)
2.22092888996634e-001	(-1.46900116890185e+002dB,-1.79948347717271e+002°)
2.27214291016839e-001	(-1.46900116725528e+002dB,-1.79947156630253e+002°)
2.32453791184044e-001	(-1.46900116552523e+002dB,-1.79945938077142e+002°)
2.37814112809615e-001	(-1.46900116372144e+002dB,-1.79944691424572e+002°)
2.43298042003741e-001	(-1.46900116183351e+002dB,-1.79943416024585e+002°)
2.48908429123558e-001	(-1.46900115986417e+002dB,-1.79942111214272e+002°)
2.54648190254671e-001	(-1.46900115779597e+002dB,-1.79940776315452e+002°)
2.60520308726827e-001	(-1.46900115561797e+002dB,-1.79939410634302e+002°)
2.66527836664555e-001	(-1.46900115335231e+002dB,-1.79938013460976e+002°)
2.72673896573548e-001	(-1.46900115098095e+002dB,-1.79936584069286e+002°)
2.78961682963638e-001	(-1.46900114849897e+002dB,-1.79935121716292e+002°)
2.85394464009191e-001	(-1.46900114590120e+002dB,-1.79933625641921e+002°)
2.91975583247790e-001	(-1.46900114318224e+002dB,-1.79932095068572e+002°)
2.98708461318093e-001	(-1.46900114032978e+002dB,-1.79930529200721e+002°)
3.05596597737760e-001	(-1.46900113735122e+002dB,-1.79928927224482e+002°)
3.12643572722382e-001	(-1.46900113422704e+002dB,-1.79927288307225e+002°)
3.19853049046357e-001	(-1.46900113096409e+002dB,-1.79925611597096e+002°)
3.27228773946669e-001	(-1.46900112754892e+002dB,-1.79923896222617e+002°)
3.34774581070574e-001	(-1.46900112397443e+002dB,-1.79922141292207e+002°)
3.42494392468201e-001	(-1.46900112022652e+002dB,-1.79920345893732e+002°)
3.50392220631092e-001	(-1.46900111631074e+002dB,-1.79918509094010e+002°)
3.58472170577761e-001	(-1.46900111221229e+002dB,-1.79916629938356e+002°)
3.66738441987342e-001	(-1.46900110793597e+002dB,-1.79914707450053e+002°)
3.75195331382433e-001	(-1.46900110343287e+002dB,-1.79912740629914e+002°)
3.83847234362282e-001	(-1.46900109873365e+002dB,-1.79910728455633e+002°)
3.92698647887470e-001	(-1.46900109382187e+002dB,-1.79908669881378e+002°)
4.01754172617274e-001	(-1.46900108866731e+002dB,-1.79906563837215e+002°)
4.11018515300929e-001	(-1.46900108327926e+002dB,-1.79904409228497e+002°)
4.20496491224037e-001	(-1.46900107763985e+002dB,-1.79902204935364e+002°)
4.30193026711386e-001	(-1.46900107173070e+002dB,-1.79899949812133e+002°)
4.40113161687482e-001	(-1.46900106555285e+002dB,-1.79897642686684e+002°)
4.50262052296127e-001	(-1.46900105908013e+002dB,-1.79895282359897e+002°)
4.60644973580410e-001	(-1.46900105229243e+002dB,-1.79892867604996e+002°)
4.71267322224483e-001	(-1.46900104520900e+002dB,-1.79890397166868e+002°)
4.82134619358582e-001	(-1.46900103778847e+002dB,-1.79887869761535e+002°)
4.93252513428712e-001	(-1.46900103002873e+002dB,-1.79885284075362e+002°)
5.04626783132517e-001	(-1.46900102191367e+002dB,-1.79882638764438e+002°)
5.16263340422847e-001	(-1.46900101341304e+002dB,-1.79879932453885e+002°)
5.28168233580588e-001	(-1.46900100449586e+002dB,-1.79877163737126e+002°)
5.40347650358352e-001	(-1.46900099518361e+002dB,-1.79874331175071e+002°)
5.52807921196650e-001	(-1.46900098543027e+002dB,-1.79871433295546e+002°)
5.65555522514243e-001	(-1.46900097522891e+002dB,-1.79868468592374e+002°)
5.78597080074361e-001	(-1.46900096453831e+002dB,-1.79865435524696e+002°)
5.91939372428540e-001	(-1.46900095335627e+002dB,-1.79862332516068e+002°)
6.05589334439886e-001	(-1.46900094165289e+002dB,-1.79859157953736e+002°)
6.19554060887574e-001	(-1.46900092940385e+002dB,-1.79855910187749e+002°)
6.33840810154471e-001	(-1.46900091658369e+002dB,-1.79852587530114e+002°)
6.48457007999789e-001	(-1.46900090317910e+002dB,-1.79849188253895e+002°)
6.63410251418746e-001	(-1.46900088912220e+002dB,-1.79845710592431e+002°)
6.78708312591213e-001	(-1.46900087442380e+002dB,-1.79842152738187e+002°)
6.94359142921431e-001	(-1.46900085903335e+002dB,-1.79838512842057e+002°)
7.10370877170875e-001	(-1.46900084291888e+002dB,-1.79834789012268e+002°)
7.26751837686421e-001	(-1.46900082607358e+002dB,-1.79830979313377e+002°)
7.43510538726017e-001	(-1.46900080842911e+002dB,-1.79827081765433e+002°)
7.60655690884097e-001	(-1.46900078998214e+002dB,-1.79823094342701e+002°)
7.78196205619051e-001	(-1.46900077063428e+002dB,-1.79819014972936e+002°)
7.96141199885092e-001	(-1.46900075041206e+002dB,-1.79814841535850e+002°)
8.14500000870932e-001	(-1.46900072925343e+002dB,-1.79810571862451e+002°)
8.33282150847739e-001	(-1.46900070710107e+002dB,-1.79806203733730e+002°)
8.52497412128873e-001	(-1.46900068391560e+002dB,-1.79801734879473e+002°)
8.72155772144002e-001	(-1.46900065963549e+002dB,-1.79797162977172e+002°)
8.92267448630227e-001	(-1.46900063423030e+002dB,-1.79792485650698e+002°)
9.12842894942905e-001	(-1.46900060763389e+002dB,-1.79787700469219e+002°)
9.33892805488942e-001	(-1.46900057981102e+002dB,-1.79782804945781e+002°)
9.55428121285379e-001	(-1.46900055067050e+002dB,-1.79777796536228e+002°)
9.77460035646155e-001	(-1.46900052019848e+002dB,-1.79772672637552e+002°)
1.00000000000000e+000	(-1.46900048829159e+002dB,-1.79767430586955e+002°)
1.02305972984251e+000	(-1.46900045488352e+002dB,-1.79762067660155e+002°)
1.04665121082543e+000	(-1.46900041993152e+002dB,-1.79756581069991e+002°)
1.07078670498640e+000	(-1.46900038333629e+002dB,-1.79750967965200e+002°)
1.09547875712234e+000	(-1.46900034504846e+002dB,-1.79745225428639e+002°)
1.12074020130978e+000	(-1.46900030498845e+002dB,-1.79739350475995e+002°)
1.14658416757563e+000	(-1.46900026301963e+002dB,-1.79733340054326e+002°)
1.17302408872162e+000	(-1.46900021910816e+002dB,-1.79727191039993e+002°)
1.20007370730629e+000	(-1.46900017316945e+002dB,-1.79720900237493e+002°)
1.22774708278787e+000	(-1.46900012506801e+002dB,-1.79714464377817e+002°)
1.25605859883189e+000	(-1.46900007471722e+002dB,-1.79707880116439e+002°)
1.28502297078731e+000	(-1.46900002203911e+002dB,-1.79701144031691e+002°)
1.31465525333509e+000	(-1.46899996689087e+002dB,-1.79694252623248e+002°)
1.34497084831303e+000	(-1.46899990915788e+002dB,-1.79687202309995e+002°)
1.37598551272118e+000	(-1.46899984874019e+002dB,-1.79679989428206e+002°)
1.40771536691173e+000	(-1.46899978551893e+002dB,-1.79672610229763e+002°)
1.44017690296787e+000	(-1.46899971934267e+002dB,-1.79665060880266e+002°)
1.47338699327573e+000	(-1.46899965006724e+002dB,-1.79657337456901e+002°)
1.50736289929413e+000	(-1.46899957756867e+002dB,-1.79649435946346e+002°)
1.54212228052647e+000	(-1.46899950167631e+002dB,-1.79641352242953e+002°)
1.57768320369953e+000	(-1.46899942226579e+002dB,-1.79633082146241e+002°)
1.61406415215390e+000	(-1.46899933912541e+002dB,-1.79624621359276e+002°)
1.65128403545105e+000	(-1.46899925210243e+002dB,-1.79615965485829e+002°)
1.68936219920180e+000	(-1.46899916104937e+002dB,-1.79607110028308e+002°)
1.72831843512154e+000	(-1.46899906572367e+002dB,-1.79598050385885e+002°)
1.76817299131727e+000	(-1.46899896597393e+002dB,-1.79588781851270e+002°)
1.80894658281186e+000	(-1.46899886155285e+002dB,-1.79579299609129e+002°)
1.85066040231103e+000	(-1.46899875228348e+002dB,-1.79569598732806e+002°)
1.89333613121855e+000	(-1.46899863789871e+002dB,-1.79559674182543e+002°)
1.93699595090551e+000	(-1.46899851818755e+002dB,-1.79549520802153e+002°)
1.98166255423943e+000	(-1.46899839287456e+002dB,-1.79539133316952e+002°)
2.02735915737920e+000	(-1.46899826172604e+002dB,-1.79528506330480e+002°)
2.07410951184210e+000	(-1.46899812446948e+002dB,-1.79517634322118e+002°)
2.12193791684896e+000	(-1.46899798079967e+002dB,-1.79506511644218e+002°)
2.17086923195407e+000	(-1.46899783041809e+002dB,-1.79495132518956e+002°)
2.22092888996635e+000	(-1.46899767304562e+002dB,-1.79483491035257e+002°)
2.27214291016840e+000	(-1.46899750832859e+002dB,-1.79471581146278e+002°)
2.32453791184045e+000	(-1.46899733591141e+002dB,-1.79459396665878e+002°)
2.37814112809616e+000	(-1.46899715545584e+002dB,-1.79446931265276e+002°)
2.43298042003741e+000	(-1.46899696658695e+002dB,-1.79434178470110e+002°)
2.48908429123559e+000	(-1.46899676890567e+002dB,-1.79421131657020e+002°)
2.54648190254672e+000	(-1.46899656199462e+002dB,-1.79407784050187e+002°)
2.60520308726828e+000	(-1.46899634545726e+002dB,-1.79394128717558e+002°)
2.66527836664556e+000	(-1.46899611879701e+002dB,-1.79380158568095e+002°)
2.72673896573549e+000	(-1.46899588156298e+002dB,-1.79365866347113e+002°)
2.78961682963639e+000	(-1.46899563326234e+002dB,-1.79351244633131e+002°)
2.85394464009192e+000	(-1.46899537339923e+002dB,-1.79336285833761e+002°)
2.91975583247791e+000	(-1.46899510140713e+002dB,-1.79320982182298e+002°)
2.98708461318094e+000	(-1.46899481673432e+002dB,-1.79305325733075e+002°)
3.05596597737761e+000	(-1.46899451876272e+002dB,-1.79289308357986e+002°)
3.12643572722383e+000	(-1.46899420690005e+002dB,-1.79272921741565e+002°)
3.19853049046358e+000	(-1.46899388049846e+002dB,-1.79256157377344e+002°)
3.27228773946670e+000	(-1.46899353887994e+002dB,-1.79239006563275e+002°)
3.34774581070575e+000	(-1.46899318131484e+002dB,-1.79221460397440e+002°)
3.42494392468202e+000	(-1.46899280706711e+002dB,-1.79203509773069e+002°)
3.50392220631093e+000	(-1.46899241537941e+002dB,-1.79185145373975e+002°)
3.58472170577762e+000	(-1.46899200541151e+002dB,-1.79166357670332e+002°)
3.66738441987343e+000	(-1.46899157631189e+002dB,-1.79147136913124e+002°)
3.75195331382434e+000	(-1.46899112722936e+002dB,-1.79127473128993e+002°)
3.83847234362283e+000	(-1.46899065717787e+002dB,-1.79107356116459e+002°)
3.92698647887472e+000	(-1.46899016521456e+002dB,-1.79086775438919e+002°)
4.01754172617275e+000	(-1.46898965031106e+002dB,-1.79065720420576e+002°)
4.11018515300930e+000	(-1.46898911135808e+002dB,-1.79044180140966e+002°)
4.20496491224039e+000	(-1.46898854730312e+002dB,-1.79022143427852e+002°)
4.30193026711388e+000	(-1.46898795691493e+002dB,-1.78999598854082e+002°)
4.40113161687483e+000	(-1.46898733902095e+002dB,-1.78976534729111e+002°)
4.50262052296129e+000	(-1.46898669232487e+002dB,-1.78952939095072e+002°)
4.60644973580411e+000	(-1.46898601542396e+002dB,-1.78928799720545e+002°)
4.71267322224485e+000	(-1.46898530697956e+002dB,-1.78904104092228e+002°)
4.82134619358584e+000	(-1.46898456550090e+002dB,-1.78878839411165e+002°)
4.93252513428714e+000	(-1.46898378943536e+002dB,-1.78852992585162e+002°)
5.04626783132518e+000	(-1.46898297719195e+002dB,-1.78826550221792e+002°)
5.16263340422848e+000	(-1.46898212705135e+002dB,-1.78799498622781e+002°)
5.28168233580590e+000	(-1.46898123728900e+002dB,-1.78771823775387e+002°)
5.40347650358354e+000	(-1.46898030603154e+002dB,-1.78743511347255e+002°)
5.52807921196652e+000	(-1.46897933134629e+002dB,-1.78714546677932e+002°)
5.65555522514245e+000	(-1.46897831122390e+002dB,-1.78684914771666e+002°)
5.78597080074363e+000	(-1.46897724353420e+002dB,-1.78654600290483e+002°)
5.91939372428542e+000	(-1.46897612605514e+002dB,-1.78623587546031e+002°)
6.05589334439888e+000	(-1.46897495648157e+002dB,-1.78591860491514e+002°)
6.19554060887576e+000	(-1.46897373238707e+002dB,-1.78559402714206e+002°)
6.33840810154473e+000	(-1.46897245121900e+002dB,-1.78526197427311e+002°)
6.48457007999792e+000	(-1.46897111031990e+002dB,-1.78492227461187e+002°)
6.63410251418748e+000	(-1.46896970690199e+002dB,-1.78457475255168e+002°)
6.78708312591215e+000	(-1.46896823808144e+002dB,-1.78421922848172e+002°)
6.94359142921434e+000	(-1.46896670078574e+002dB,-1.78385551871381e+002°)
7.10370877170878e+000	(-1.46896509183404e+002dB,-1.78348343537669e+002°)
7.26751837686424e+000	(-1.46896340788397e+002dB,-1.78310278633223e+002°)
7.43510538726020e+000	(-1.46896164543138e+002dB,-1.78271337508034e+002°)
7.60655690884100e+000	(-1.46895980085651e+002dB,-1.78231500065246e+002°)
7.78196205619054e+000	(-1.46895787031649e+002dB,-1.78190745753349e+002°)
7.96141199885095e+000	(-1.46895584978419e+002dB,-1.78149053555351e+002°)
8.14500000870935e+000	(-1.46895373508655e+002dB,-1.78106401977621e+002°)
8.33282150847742e+000	(-1.46895152186936e+002dB,-1.78062769040036e+002°)
8.52497412128876e+000	(-1.46894920550172e+002dB,-1.78018132267381e+002°)
8.72155772144005e+000	(-1.46894678123308e+002dB,-1.77972468674906e+002°)
8.92267448630231e+000	(-1.46894424400364e+002dB,-1.77925754761443e+002°)
9.12842894942908e+000	(-1.46894158854724e+002dB,-1.77877966495733e+002°)
9.33892805488945e+000	(-1.46893880940727e+002dB,-1.77829079304356e+002°)
9.55428121285382e+000	(-1.46893590079223e+002dB,-1.77779068063448e+002°)
9.77460035646159e+000	(-1.46893285671048e+002dB,-1.77727907083367e+002°)
1.00000000000001e+001	(-1.46892967084472e+002dB,-1.77675570099584e+002°)
1.02305972984252e+001	(-1.46892633659910e+002dB,-1.77622030259053e+002°)
1.04665121082544e+001	(-1.46892284709242e+002dB,-1.77567260107649e+002°)
1.07078670498640e+001	(-1.46891919510412e+002dB,-1.77511231578709e+002°)
1.09547875712234e+001	(-1.46891537303971e+002dB,-1.77453915980959e+002°)
1.12074020130979e+001	(-1.46891137305508e+002dB,-1.77395283981525e+002°)
1.14658416757563e+001	(-1.46890718686084e+002dB,-1.77335305597994e+002°)
1.17302408872162e+001	(-1.46890280579208e+002dB,-1.77273950182659e+002°)
1.20007370730630e+001	(-1.46889822083070e+002dB,-1.77211186407728e+002°)
1.22774708278788e+001	(-1.46889342248738e+002dB,-1.77146982254749e+002°)
1.25605859883190e+001	(-1.46888840085559e+002dB,-1.77081304998496e+002°)
1.28502297078732e+001	(-1.46888314559825e+002dB,-1.77014121192636e+002°)
1.31465525333509e+001	(-1.46887764584705e+002dB,-1.76945396658239e+002°)
1.34497084831304e+001	(-1.46887189027375e+002dB,-1.76875096466287e+002°)
1.37598551272118e+001	(-1.46886586701417e+002dB,-1.76803184924963e+002°)
1.40771536691174e+001	(-1.46885956365110e+002dB,-1.76729625564813e+002°)
1.44017690296787e+001	(-1.46885296721594e+002dB,-1.76654381122963e+002°)
1.47338699327573e+001	(-1.46884606410969e+002dB,-1.76577413530237e+002°)
1.50736289929414e+001	(-1.46883884016881e+002dB,-1.76498683892530e+002°)
1.54212228052648e+001	(-1.46883128048413e+002dB,-1.76418152481741e+002°)
1.57768320369953e+001	(-1.46882336955739e+002dB,-1.76335778713163e+002°)
1.61406415215391e+001	(-1.46881509109763e+002dB,-1.76251521137244e+002°)
1.65128403545105e+001	(-1.46880642813521e+002dB,-1.76165337418223e+002°)
1.68936219920180e+001	(-1.46879736288863e+002dB,-1.76077184322971e+002°)
1.72831843512154e+001	(-1.46878787674277e+002dB,-1.75987017705209e+002°)
1.76817299131727e+001	(-1.46877795031195e+002dB,-1.75894792485588e+002°)
1.80894658281187e+001	(-1.46876756321603e+002dB,-1.75800462644980e+002°)
1.85066040231104e+001	(-1.46875669419331e+002dB,-1.75703981202289e+002°)
1.89333613121856e+001	(-1.46874532104580e+002dB,-1.75605300199768e+002°)
1.93699595090552e+001	(-1.46873342053641e+002dB,-1.75504370690947e+002°)
1.98166255423944e+001	(-1.46872096830418e+002dB,-1.75401142728082e+002°)
2.02735915737921e+001	(-1.46870793900300e+002dB,-1.75295565337890e+002°)
2.07410951184211e+001	(-1.46869430607379e+002dB,-1.75187586516391e+002°)
2.12193791684897e+001	(-1.46868004168717e+002dB,-1.75077153215585e+002°)
2.17086923195408e+001	(-1.46866511692871e+002dB,-1.74964211316304e+002°)
2.22092888996636e+001	(-1.46864950136000e+002dB,-1.74848705636559e+002°)
2.27214291016841e+001	(-1.46863316330536e+002dB,-1.74730579899129e+002°)
2.32453791184046e+001	(-1.46861606967299e+002dB,-1.74609776725683e+002°)
2.37814112809617e+001	(-1.46859818578713e+002dB,-1.74486237631582e+002°)
2.43298042003743e+001	(-1.46857947549540e+002dB,-1.74359903004142e+002°)
2.48908429123560e+001	(-1.46855990096947e+002dB,-1.74230712100377e+002°)
2.54648190254673e+001	(-1.46853942270144e+002dB,-1.74098603033173e+002°)
2.60520308726829e+001	(-1.46851799946435e+002dB,-1.73963512760054e+002°)
2.66527836664557e+001	(-1.46849558807208e+002dB,-1.73825377086687e+002°)
2.72673896573550e+001	(-1.46847214358480e+002dB,-1.73684130640303e+002°)
2.78961682963640e+001	(-1.46844761892474e+002dB,-1.73539706885303e+002°)
2.85394464009193e+001	(-1.46842196498994e+002dB,-1.73392038104867e+002°)
2.91975583247793e+001	(-1.46839513045524e+002dB,-1.73241055406143e+002°)
2.98708461318096e+001	(-1.46836706183993e+002dB,-1.73086688706522e+002°)
3.05596597737762e+001	(-1.46833770318419e+002dB,-1.72928866751567e+002°)
3.12643572722385e+001	(-1.46830699571663e+002dB,-1.72767517137719e+002°)
3.19853049046360e+001	(-1.46827487941449e+002dB,-1.72602566177319e+002°)
3.27228773946671e+001	(-1.46824129028784e+002dB,-1.72433939120644e+002°)
3.34774581070577e+001	(-1.46820616194717e+002dB,-1.72261560026660e+002°)
3.42494392468204e+001	(-1.46816942526282e+002dB,-1.72085351790987e+002°)
3.50392220631094e+001	(-1.46813100800241e+002dB,-1.71905236180835e+002°)
3.58472170577764e+001	(-1.46809083492312e+002dB,-1.71721133831844e+002°)
3.66738441987345e+001	(-1.46804882748095e+002dB,-1.71532964282464e+002°)
3.75195331382436e+001	(-1.46800490379815e+002dB,-1.71340645987406e+002°)
3.83847234362285e+001	(-1.46795897856151e+002dB,-1.71144096340114e+002°)
3.92698647887473e+001	(-1.46791096281301e+002dB,-1.70943231709337e+002°)
4.01754172617277e+001	(-1.46786076386747e+002dB,-1.70737967466684e+002°)
4.11018515300932e+001	(-1.46780828514864e+002dB,-1.70528218026151e+002°)
4.20496491224040e+001	(-1.46775342608708e+002dB,-1.70313896881081e+002°)
4.30193026711390e+001	(-1.46769608188519e+002dB,-1.70094916660125e+002°)
4.40113161687485e+001	(-1.46763614349310e+002dB,-1.69871189164337e+002°)
4.50262052296131e+001	(-1.46757349740022e+002dB,-1.69642625429446e+002°)
4.60644973580413e+001	(-1.46750802543734e+002dB,-1.69409135792937e+002°)
4.71267322224487e+001	(-1.46743960467333e+002dB,-1.69170629955497e+002°)
4.82134619358586e+001	(-1.46736810725775e+002dB,-1.68927017054466e+002°)
4.93252513428716e+001	(-1.46729340025520e+002dB,-1.68678205744613e+002°)
