v1	Ic(Q1)	Ic(Q2)
-2.500000000000000e-001	3.028345e-007	1.820933e-004
-2.490000000000000e-001	3.106319e-007	1.820846e-004
-2.480000000000000e-001	3.186312e-007	1.820757e-004
-2.470000000000000e-001	3.268377e-007	1.820666e-004
-2.460000000000000e-001	3.352567e-007	1.820573e-004
-2.450000000000000e-001	3.438936e-007	1.820477e-004
-2.440000000000000e-001	3.527542e-007	1.820379e-004
-2.430000000000000e-001	3.618441e-007	1.820279e-004
-2.420000000000000e-001	3.711693e-007	1.820176e-004
-2.410000000000000e-001	3.807358e-007	1.820070e-004
-2.400000000000000e-001	3.905498e-007	1.819962e-004
-2.390000000000000e-001	4.006178e-007	1.819852e-004
-2.380000000000000e-001	4.109463e-007	1.819739e-004
-2.370000000000000e-001	4.215419e-007	1.819622e-004
-2.360000000000000e-001	4.324116e-007	1.819504e-004
-2.350000000000000e-001	4.435623e-007	1.819382e-004
-2.340000000000000e-001	4.550014e-007	1.819257e-004
-2.330000000000000e-001	4.667363e-007	1.819129e-004
-2.320000000000000e-001	4.787745e-007	1.818998e-004
-2.310000000000000e-001	4.911238e-007	1.818863e-004
-2.300000000000000e-001	5.037924e-007	1.818726e-004
-2.290000000000000e-001	5.167882e-007	1.818585e-004
-2.280000000000000e-001	5.301198e-007	1.818440e-004
-2.270000000000000e-001	5.437958e-007	1.818292e-004
-2.260000000000000e-001	5.578250e-007	1.818140e-004
-2.250000000000000e-001	5.722164e-007	1.817985e-004
-2.240000000000000e-001	5.869795e-007	1.817826e-004
-2.230000000000000e-001	6.021236e-007	1.817662e-004
-2.220000000000000e-001	6.176587e-007	1.817495e-004
-2.210000000000000e-001	6.335945e-007	1.817324e-004
-2.200000000000000e-001	6.499416e-007	1.817148e-004
-2.190000000000000e-001	6.667103e-007	1.816968e-004
-2.180000000000000e-001	6.839114e-007	1.816783e-004
-2.170000000000000e-001	7.015562e-007	1.816594e-004
-2.160000000000000e-001	7.196558e-007	1.816400e-004
-2.150000000000000e-001	7.382218e-007	1.816202e-004
-2.140000000000000e-001	7.572664e-007	1.815998e-004
-2.130000000000000e-001	7.768015e-007	1.815790e-004
-2.120000000000000e-001	7.968399e-007	1.815576e-004
-2.110000000000000e-001	8.173942e-007	1.815357e-004
-2.100000000000000e-001	8.384777e-007	1.815133e-004
-2.090000000000000e-001	8.601039e-007	1.814903e-004
-2.080000000000000e-001	8.822865e-007	1.814667e-004
-2.070000000000000e-001	9.050399e-007	1.814425e-004
-2.060000000000000e-001	9.283784e-007	1.814178e-004
-2.050000000000000e-001	9.523170e-007	1.813924e-004
-2.040000000000000e-001	9.768709e-007	1.813664e-004
-2.030000000000000e-001	1.002056e-006	1.813398e-004
-2.020000000000000e-001	1.027888e-006	1.813124e-004
-2.010000000000000e-001	1.054383e-006	1.812844e-004
-2.000000000000000e-001	1.081558e-006	1.812557e-004
-1.990000000000000e-001	1.109431e-006	1.812264e-004
-1.980000000000000e-001	1.138020e-006	1.811962e-004
-1.970000000000000e-001	1.167341e-006	1.811653e-004
-1.960000000000000e-001	1.197414e-006	1.811337e-004
-1.950000000000000e-001	1.228258e-006	1.811012e-004
-1.940000000000000e-001	1.259893e-006	1.810680e-004
-1.930000000000000e-001	1.292337e-006	1.810339e-004
-1.920000000000000e-001	1.325612e-006	1.809990e-004
-1.910000000000000e-001	1.359739e-006	1.809632e-004
-1.900000000000000e-001	1.394739e-006	1.809265e-004
-1.890000000000000e-001	1.430634e-006	1.808890e-004
-1.879999999999999e-001	1.467447e-006	1.808504e-004
-1.869999999999999e-001	1.505200e-006	1.808109e-004
-1.859999999999999e-001	1.543917e-006	1.807705e-004
-1.849999999999999e-001	1.583623e-006	1.807290e-004
-1.839999999999999e-001	1.624341e-006	1.806865e-004
-1.829999999999999e-001	1.666099e-006	1.806429e-004
-1.819999999999999e-001	1.708920e-006	1.805983e-004
-1.809999999999999e-001	1.752833e-006	1.805526e-004
-1.799999999999999e-001	1.797864e-006	1.805057e-004
-1.789999999999999e-001	1.844041e-006	1.804576e-004
-1.779999999999999e-001	1.891393e-006	1.804084e-004
-1.769999999999999e-001	1.939949e-006	1.803579e-004
-1.759999999999999e-001	1.989739e-006	1.803062e-004
-1.749999999999999e-001	2.040793e-006	1.802532e-004
-1.739999999999999e-001	2.093143e-006	1.801988e-004
-1.729999999999999e-001	2.146820e-006	1.801432e-004
-1.719999999999999e-001	2.201859e-006	1.800861e-004
-1.709999999999999e-001	2.258291e-006	1.800277e-004
-1.699999999999999e-001	2.316153e-006	1.799677e-004
-1.689999999999999e-001	2.375478e-006	1.799063e-004
-1.679999999999999e-001	2.436303e-006	1.798434e-004
-1.669999999999999e-001	2.498664e-006	1.797790e-004
-1.659999999999999e-001	2.562600e-006	1.797129e-004
-1.649999999999999e-001	2.628149e-006	1.796452e-004
-1.639999999999999e-001	2.695349e-006	1.795758e-004
-1.629999999999999e-001	2.764243e-006	1.795047e-004
-1.619999999999999e-001	2.834870e-006	1.794319e-004
-1.609999999999999e-001	2.907273e-006	1.793573e-004
-1.599999999999999e-001	2.981495e-006	1.792808e-004
-1.589999999999999e-001	3.057580e-006	1.792024e-004
-1.579999999999999e-001	3.135574e-006	1.791221e-004
-1.569999999999999e-001	3.215521e-006	1.790399e-004
-1.559999999999999e-001	3.297471e-006	1.789556e-004
-1.549999999999999e-001	3.381469e-006	1.788692e-004
-1.539999999999999e-001	3.467566e-006	1.787808e-004
-1.529999999999999e-001	3.555811e-006	1.786901e-004
-1.519999999999999e-001	3.646257e-006	1.785972e-004
-1.509999999999999e-001	3.738956e-006	1.785021e-004
-1.499999999999999e-001	3.833960e-006	1.784046e-004
-1.489999999999999e-001	3.931325e-006	1.783047e-004
-1.479999999999999e-001	4.031108e-006	1.782025e-004
-1.469999999999999e-001	4.133364e-006	1.780977e-004
-1.459999999999999e-001	4.238152e-006	1.779903e-004
-1.449999999999999e-001	4.345531e-006	1.778804e-004
-1.439999999999999e-001	4.455563e-006	1.777677e-004
-1.429999999999999e-001	4.568309e-006	1.776524e-004
-1.419999999999999e-001	4.683831e-006	1.775342e-004
-1.409999999999999e-001	4.802197e-006	1.774132e-004
-1.399999999999999e-001	4.923469e-006	1.772892e-004
-1.389999999999999e-001	5.047716e-006	1.771622e-004
-1.379999999999999e-001	5.175006e-006	1.770322e-004
-1.369999999999999e-001	5.305409e-006	1.768991e-004
-1.359999999999999e-001	5.438996e-006	1.767627e-004
-1.349999999999999e-001	5.575840e-006	1.766231e-004
-1.339999999999999e-001	5.716014e-006	1.764801e-004
-1.329999999999999e-001	5.859593e-006	1.763336e-004
-1.319999999999999e-001	6.006655e-006	1.761837e-004
-1.309999999999999e-001	6.157277e-006	1.760302e-004
-1.299999999999999e-001	6.311539e-006	1.758730e-004
-1.289999999999999e-001	6.469522e-006	1.757121e-004
-1.279999999999999e-001	6.631308e-006	1.755474e-004
-1.269999999999999e-001	6.796981e-006	1.753787e-004
-1.259999999999999e-001	6.966627e-006	1.752061e-004
-1.249999999999999e-001	7.140332e-006	1.750294e-004
-1.239999999999999e-001	7.318185e-006	1.748485e-004
-1.229999999999999e-001	7.500276e-006	1.746633e-004
-1.219999999999999e-001	7.686695e-006	1.744738e-004
-1.209999999999999e-001	7.877535e-006	1.742799e-004
-1.199999999999999e-001	8.072891e-006	1.740814e-004
-1.189999999999999e-001	8.272857e-006	1.738783e-004
-1.179999999999999e-001	8.477532e-006	1.736704e-004
-1.169999999999999e-001	8.687014e-006	1.734578e-004
-1.159999999999999e-001	8.901403e-006	1.732402e-004
-1.149999999999999e-001	9.120800e-006	1.730176e-004
-1.139999999999999e-001	9.345308e-006	1.727898e-004
-1.129999999999999e-001	9.575032e-006	1.725568e-004
-1.119999999999999e-001	9.810077e-006	1.723185e-004
-1.109999999999999e-001	1.005055e-005	1.720747e-004
-1.099999999999999e-001	1.029656e-005	1.718254e-004
-1.089999999999999e-001	1.054822e-005	1.715704e-004
-1.079999999999999e-001	1.080563e-005	1.713096e-004
-1.069999999999999e-001	1.106892e-005	1.710429e-004
-1.059999999999999e-001	1.133819e-005	1.707703e-004
-1.049999999999999e-001	1.161355e-005	1.704915e-004
-1.039999999999999e-001	1.189513e-005	1.702065e-004
-1.029999999999999e-001	1.218305e-005	1.699151e-004
-1.019999999999999e-001	1.247741e-005	1.696173e-004
-1.009999999999999e-001	1.277834e-005	1.693129e-004
-9.999999999999987e-002	1.308596e-005	1.690018e-004
-9.899999999999987e-002	1.340040e-005	1.686839e-004
-9.799999999999987e-002	1.372176e-005	1.683590e-004
-9.699999999999986e-002	1.405018e-005	1.680270e-004
-9.599999999999986e-002	1.438578e-005	1.676879e-004
-9.499999999999986e-002	1.472867e-005	1.673414e-004
-9.399999999999986e-002	1.507900e-005	1.669875e-004
-9.299999999999986e-002	1.543688e-005	1.666261e-004
-9.199999999999986e-002	1.580244e-005	1.662569e-004
-9.099999999999986e-002	1.617580e-005	1.658799e-004
-8.999999999999986e-002	1.655709e-005	1.654950e-004
-8.899999999999986e-002	1.694644e-005	1.651021e-004
-8.799999999999986e-002	1.734396e-005	1.647009e-004
-8.699999999999986e-002	1.774980e-005	1.642914e-004
-8.599999999999985e-002	1.816407e-005	1.638735e-004
-8.499999999999985e-002	1.858690e-005	1.634470e-004
-8.399999999999985e-002	1.901842e-005	1.630119e-004
-8.299999999999985e-002	1.945874e-005	1.625679e-004
-8.199999999999985e-002	1.990800e-005	1.621149e-004
-8.099999999999985e-002	2.036631e-005	1.616530e-004
-7.999999999999985e-002	2.083380e-005	1.611818e-004
-7.899999999999985e-002	2.131058e-005	1.607014e-004
-7.799999999999985e-002	2.179678e-005	1.602115e-004
-7.699999999999985e-002	2.229252e-005	1.597121e-004
-7.599999999999985e-002	2.279790e-005	1.592030e-004
-7.499999999999985e-002	2.331305e-005	1.586842e-004
-7.399999999999984e-002	2.383808e-005	1.581555e-004
-7.299999999999984e-002	2.437309e-005	1.576169e-004
-7.199999999999984e-002	2.491819e-005	1.570681e-004
-7.099999999999984e-002	2.547349e-005	1.565092e-004
-6.999999999999984e-002	2.603909e-005	1.559399e-004
-6.899999999999984e-002	2.661508e-005	1.553603e-004
-6.799999999999984e-002	2.720157e-005	1.547702e-004
-6.699999999999984e-002	2.779865e-005	1.541695e-004
-6.599999999999984e-002	2.840640e-005	1.535582e-004
-6.499999999999984e-002	2.902490e-005	1.529361e-004
-6.399999999999984e-002	2.965425e-005	1.523032e-004
-6.299999999999983e-002	3.029450e-005	1.516593e-004
-6.199999999999983e-002	3.094575e-005	1.510046e-004
-6.099999999999983e-002	3.160804e-005	1.503387e-004
-5.999999999999983e-002	3.228146e-005	1.496618e-004
-5.899999999999983e-002	3.296604e-005	1.489738e-004
-5.799999999999983e-002	3.366184e-005	1.482745e-004
-5.699999999999983e-002	3.436890e-005	1.475640e-004
-5.599999999999983e-002	3.508728e-005	1.468422e-004
-5.499999999999983e-002	3.581699e-005	1.461091e-004
-5.399999999999983e-002	3.655806e-005	1.453647e-004
-5.299999999999983e-002	3.731052e-005	1.446089e-004
-5.199999999999982e-002	3.807438e-005	1.438418e-004
-5.099999999999982e-002	3.884963e-005	1.430632e-004
-4.999999999999982e-002	3.963630e-005	1.422733e-004
-4.899999999999982e-002	4.043435e-005	1.414721e-004
-4.799999999999982e-002	4.124377e-005	1.406595e-004
-4.699999999999982e-002	4.206455e-005	1.398356e-004
-4.599999999999982e-002	4.289664e-005	1.390004e-004
-4.499999999999982e-002	4.374001e-005	1.381540e-004
-4.399999999999982e-002	4.459461e-005	1.372964e-004
-4.299999999999982e-002	4.546037e-005	1.364276e-004
-4.199999999999982e-002	4.633723e-005	1.355479e-004
-4.099999999999981e-002	4.722512e-005	1.346571e-004
-3.999999999999981e-002	4.812394e-005	1.337554e-004
-3.899999999999981e-002	4.903361e-005	1.328430e-004
-3.799999999999981e-002	4.995401e-005	1.319198e-004
-3.699999999999981e-002	5.088505e-005	1.309861e-004
-3.599999999999981e-002	5.182658e-005	1.300420e-004
-3.499999999999981e-002	5.277848e-005	1.290875e-004
-3.399999999999981e-002	5.374060e-005	1.281229e-004
-3.299999999999981e-002	5.471280e-005	1.271482e-004
-3.199999999999981e-002	5.569491e-005	1.261637e-004
-3.099999999999981e-002	5.668676e-005	1.251695e-004
-2.999999999999981e-002	5.768817e-005	1.241658e-004
-2.899999999999980e-002	5.869894e-005	1.231528e-004
-2.799999999999980e-002	5.971888e-005	1.221307e-004
-2.699999999999980e-002	6.074778e-005	1.210997e-004
-2.599999999999980e-002	6.178541e-005	1.200600e-004
-2.499999999999980e-002	6.283154e-005	1.190119e-004
-2.399999999999980e-002	6.388593e-005	1.179556e-004
-2.299999999999980e-002	6.494835e-005	1.168914e-004
-2.199999999999980e-002	6.601853e-005	1.158194e-004
-2.099999999999980e-002	6.709620e-005	1.147401e-004
-1.999999999999980e-002	6.818109e-005	1.136536e-004
-1.899999999999980e-002	6.927293e-005	1.125602e-004
-1.799999999999979e-002	7.037141e-005	1.114602e-004
-1.699999999999979e-002	7.147624e-005	1.103540e-004
-1.599999999999979e-002	7.258711e-005	1.092418e-004
-1.499999999999979e-002	7.370370e-005	1.081240e-004
-1.399999999999979e-002	7.482572e-005	1.070008e-004
-1.299999999999979e-002	7.595281e-005	1.058726e-004
-1.199999999999979e-002	7.708465e-005	1.047398e-004
-1.099999999999979e-002	7.822091e-005	1.036026e-004
-9.999999999999787e-003	7.936123e-005	1.024614e-004
-8.999999999999786e-003	8.050526e-005	1.013166e-004
-7.999999999999785e-003	8.165266e-005	1.001685e-004
-6.999999999999785e-003	8.280307e-005	9.901747e-005
-5.999999999999785e-003	8.395612e-005	9.786389e-005
-4.999999999999785e-003	8.511145e-005	9.670811e-005
-3.999999999999785e-003	8.626868e-005	9.555051e-005
-2.999999999999785e-003	8.742746e-005	9.439145e-005
-1.999999999999785e-003	8.858740e-005	9.323131e-005
-9.999999999997849e-004	8.974812e-005	9.207046e-005
2.151057110211241e-016	9.090927e-005	9.090927e-005
1.000000000000215e-003	9.207046e-005	8.974813e-005
2.000000000000215e-003	9.323132e-005	8.858740e-005
3.000000000000215e-003	9.439146e-005	8.742747e-005
4.000000000000215e-003	9.555053e-005	8.626870e-005
5.000000000000215e-003	9.670814e-005	8.511147e-005
6.000000000000215e-003	9.786392e-005	8.395615e-005
7.000000000000215e-003	9.901750e-005	8.280310e-005
8.000000000000215e-003	1.001685e-004	8.165271e-005
9.000000000000216e-003	1.013166e-004	8.050531e-005
1.000000000000022e-002	1.024614e-004	7.936128e-005
1.100000000000022e-002	1.036026e-004	7.822096e-005
1.200000000000022e-002	1.047398e-004	7.708471e-005
1.300000000000022e-002	1.058727e-004	7.595287e-005
1.400000000000022e-002	1.070009e-004	7.482579e-005
1.500000000000022e-002	1.081241e-004	7.370378e-005
1.600000000000022e-002	1.092419e-004	7.258718e-005
1.700000000000022e-002	1.103541e-004	7.147631e-005
1.800000000000022e-002	1.114604e-004	7.037149e-005
1.900000000000023e-002	1.125603e-004	6.927301e-005
2.000000000000023e-002	1.136537e-004	6.818118e-005
2.100000000000023e-002	1.147402e-004	6.709629e-005
2.200000000000023e-002	1.158196e-004	6.601862e-005
2.300000000000023e-002	1.168915e-004	6.494845e-005
2.400000000000023e-002	1.179558e-004	6.388604e-005
2.500000000000023e-002	1.190121e-004	6.283164e-005
2.600000000000023e-002	1.200602e-004	6.178551e-005
2.700000000000023e-002	1.210999e-004	6.074788e-005
2.800000000000023e-002	1.221309e-004	5.971899e-005
2.900000000000023e-002	1.231530e-004	5.869905e-005
3.000000000000024e-002	1.241660e-004	5.768828e-005
3.100000000000024e-002	1.251697e-004	5.668688e-005
3.200000000000024e-002	1.261639e-004	5.569503e-005
3.300000000000024e-002	1.271484e-004	5.471292e-005
3.400000000000024e-002	1.281231e-004	5.374072e-005
3.500000000000024e-002	1.290878e-004	5.277860e-005
3.600000000000024e-002	1.300423e-004	5.182670e-005
3.700000000000024e-002	1.309864e-004	5.088517e-005
3.800000000000024e-002	1.319201e-004	4.995414e-005
3.900000000000024e-002	1.328433e-004	4.903374e-005
4.000000000000024e-002	1.337558e-004	4.812407e-005
4.100000000000025e-002	1.346574e-004	4.722525e-005
4.200000000000025e-002	1.355482e-004	4.633737e-005
4.300000000000025e-002	1.364280e-004	4.546050e-005
4.400000000000025e-002	1.372967e-004	4.459474e-005
4.500000000000025e-002	1.381543e-004	4.374015e-005
4.600000000000025e-002	1.390008e-004	4.289678e-005
4.700000000000025e-002	1.398360e-004	4.206469e-005
4.800000000000025e-002	1.406599e-004	4.124391e-005
4.900000000000025e-002	1.414725e-004	4.043448e-005
5.000000000000025e-002	1.422738e-004	3.963643e-005
5.100000000000025e-002	1.430636e-004	3.884978e-005
5.200000000000025e-002	1.438422e-004	3.807452e-005
5.300000000000026e-002	1.446094e-004	3.731066e-005
5.400000000000026e-002	1.453651e-004	3.655820e-005
5.500000000000026e-002	1.461096e-004	3.581713e-005
5.600000000000026e-002	1.468427e-004	3.508741e-005
5.700000000000026e-002	1.475645e-004	3.436904e-005
5.800000000000026e-002	1.482750e-004	3.366197e-005
5.900000000000026e-002	1.489743e-004	3.296617e-005
6.000000000000026e-002	1.496624e-004	3.228159e-005
6.100000000000026e-002	1.503393e-004	3.160818e-005
6.200000000000026e-002	1.510051e-004	3.094589e-005
6.300000000000026e-002	1.516599e-004	3.029464e-005
6.400000000000027e-002	1.523037e-004	2.965438e-005
6.500000000000027e-002	1.529366e-004	2.902504e-005
6.600000000000027e-002	1.535588e-004	2.840653e-005
6.700000000000027e-002	1.541701e-004	2.779878e-005
6.800000000000027e-002	1.547708e-004	2.720171e-005
6.900000000000027e-002	1.553609e-004	2.661522e-005
7.000000000000027e-002	1.559406e-004	2.603922e-005
7.100000000000027e-002	1.565098e-004	2.547362e-005
7.200000000000027e-002	1.570688e-004	2.491832e-005
7.300000000000027e-002	1.576175e-004	2.437322e-005
7.400000000000027e-002	1.581562e-004	2.383821e-005
7.500000000000028e-002	1.586849e-004	2.331318e-005
7.600000000000028e-002	1.592037e-004	2.279803e-005
7.700000000000028e-002	1.597128e-004	2.229265e-005
7.800000000000028e-002	1.602122e-004	2.179691e-005
7.900000000000028e-002	1.607021e-004	2.131071e-005
8.000000000000028e-002	1.611826e-004	2.083392e-005
8.100000000000028e-002	1.616537e-004	2.036643e-005
8.200000000000028e-002	1.621157e-004	1.990812e-005
8.300000000000028e-002	1.625687e-004	1.945887e-005
8.400000000000028e-002	1.630127e-004	1.901854e-005
8.500000000000028e-002	1.634479e-004	1.858702e-005
8.600000000000029e-002	1.638743e-004	1.816419e-005
8.700000000000029e-002	1.642923e-004	1.774992e-005
8.800000000000029e-002	1.647017e-004	1.734408e-005
8.900000000000029e-002	1.651029e-004	1.694655e-005
9.000000000000029e-002	1.654959e-004	1.655721e-005
9.100000000000029e-002	1.658808e-004	1.617591e-005
9.200000000000029e-002	1.662578e-004	1.580255e-005
9.300000000000029e-002	1.666270e-004	1.543699e-005
9.400000000000029e-002	1.669884e-004	1.507911e-005
9.500000000000029e-002	1.673424e-004	1.472879e-005
9.600000000000029e-002	1.676888e-004	1.438588e-005
9.700000000000029e-002	1.680280e-004	1.405029e-005
9.800000000000030e-002	1.683599e-004	1.372187e-005
9.900000000000030e-002	1.686848e-004	1.340050e-005
1.000000000000003e-001	1.690028e-004	1.308607e-005
1.010000000000003e-001	1.693139e-004	1.277845e-005
1.020000000000003e-001	1.696183e-004	1.247751e-005
1.030000000000003e-001	1.699162e-004	1.218315e-005
1.040000000000003e-001	1.702075e-004	1.189523e-005
1.050000000000003e-001	1.704926e-004	1.161365e-005
1.060000000000003e-001	1.707713e-004	1.133828e-005
1.070000000000003e-001	1.710440e-004	1.106901e-005
1.080000000000003e-001	1.713107e-004	1.080573e-005
1.090000000000003e-001	1.715715e-004	1.054831e-005
1.100000000000003e-001	1.718265e-004	1.029665e-005
1.110000000000003e-001	1.720758e-004	1.005064e-005
1.120000000000003e-001	1.723196e-004	9.810166e-006
1.130000000000003e-001	1.725580e-004	9.575120e-006
1.140000000000003e-001	1.727910e-004	9.345395e-006
1.150000000000003e-001	1.730187e-004	9.120886e-006
1.160000000000003e-001	1.732414e-004	8.901487e-006
1.170000000000003e-001	1.734590e-004	8.687098e-006
1.180000000000003e-001	1.736717e-004	8.477615e-006
1.190000000000003e-001	1.738795e-004	8.272938e-006
1.200000000000003e-001	1.740826e-004	8.072971e-006
1.210000000000003e-001	1.742811e-004	7.877614e-006
1.220000000000003e-001	1.744751e-004	7.686773e-006
1.230000000000003e-001	1.746646e-004	7.500353e-006
1.240000000000003e-001	1.748498e-004	7.318262e-006
1.250000000000003e-001	1.750307e-004	7.140408e-006
1.260000000000003e-001	1.752074e-004	6.966701e-006
1.270000000000003e-001	1.753801e-004	6.797055e-006
1.280000000000003e-001	1.755487e-004	6.631380e-006
1.290000000000003e-001	1.757135e-004	6.469592e-006
1.300000000000003e-001	1.758744e-004	6.311609e-006
1.310000000000003e-001	1.760316e-004	6.157345e-006
1.320000000000003e-001	1.761851e-004	6.006722e-006
1.330000000000003e-001	1.763351e-004	5.859660e-006
1.340000000000003e-001	1.764815e-004	5.716079e-006
1.350000000000003e-001	1.766245e-004	5.575904e-006
