Freq.	V(v0)
1.00000000000000e+002	(-3.43519617983721e+001dB,-6.65535542323699e-004°)
1.02305972984251e+002	(-3.43519617983966e+001dB,-6.80882612128971e-004°)
1.04665121082543e+002	(-3.43519617984223e+001dB,-6.96583581217742e-004°)
1.07078670498640e+002	(-3.43519617984491e+001dB,-7.12646610411872e-004°)
1.09547875712233e+002	(-3.43519617984772e+001dB,-7.29080048719574e-004°)
1.12074020130978e+002	(-3.43519617985066e+001dB,-7.45892437674928e-004°)
1.14658416757562e+002	(-3.43519617985374e+001dB,-7.63092515777486e-004°)
1.17302408872161e+002	(-3.43519617985697e+001dB,-7.80689223034238e-004°)
1.20007370730629e+002	(-3.43519617986034e+001dB,-7.98691705606319e-004°)
1.22774708278787e+002	(-3.43519617986387e+001dB,-8.17109320562866e-004°)
1.25605859883189e+002	(-3.43519617986756e+001dB,-8.35951640744507e-004°)
1.28502297078731e+002	(-3.43519617987143e+001dB,-8.55228459738982e-004°)
1.31465525333508e+002	(-3.43519617987548e+001dB,-8.74949796971522e-004°)
1.34497084831302e+002	(-3.43519617987971e+001dB,-8.95125902912595e-004°)
1.37598551272117e+002	(-3.43519617988415e+001dB,-9.15767264405746e-004°)
1.40771536691173e+002	(-3.43519617988879e+001dB,-9.36884610118301e-004°)
1.44017690296786e+002	(-3.43519617989365e+001dB,-9.58488916117754e-004°)
1.47338699327572e+002	(-3.43519617989873e+001dB,-9.80591411576750e-004°)
1.50736289929412e+002	(-3.43519617990405e+001dB,-1.00320358460962e-003°)
1.54212228052647e+002	(-3.43519617990962e+001dB,-1.02633718824350e-003°)
1.57768320369952e+002	(-3.43519617991545e+001dB,-1.05000424652716e-003°)
1.61406415215389e+002	(-3.43519617992155e+001dB,-1.07421706078070e-003°)
1.65128403545104e+002	(-3.43519617992794e+001dB,-1.09898821598932e-003°)
1.68936219920179e+002	(-3.43519617993462e+001dB,-1.12433058734457e-003°)
1.72831843512153e+002	(-3.43519617994161e+001dB,-1.15025734693645e-003°)
1.76817299131726e+002	(-3.43519617994894e+001dB,-1.17678197059979e-003°)
1.80894658281185e+002	(-3.43519617995660e+001dB,-1.20391824491854e-003°)
1.85066040231103e+002	(-3.43519617996462e+001dB,-1.23168027439154e-003°)
1.89333613121855e+002	(-3.43519617997301e+001dB,-1.26008248876356e-003°)
1.93699595090551e+002	(-3.43519617998180e+001dB,-1.28913965052537e-003°)
1.98166255423942e+002	(-3.43519617999100e+001dB,-1.31886686258682e-003°)
2.02735915737920e+002	(-3.43519618000062e+001dB,-1.34927957612675e-003°)
2.07410951184210e+002	(-3.43519618001070e+001dB,-1.38039359862401e-003°)
2.12193791684895e+002	(-3.43519618002124e+001dB,-1.41222510207366e-003°)
2.17086923195407e+002	(-3.43519618003228e+001dB,-1.44479063139257e-003°)
2.22092888996634e+002	(-3.43519618004383e+001dB,-1.47810711301893e-003°)
2.27214291016839e+002	(-3.43519618005592e+001dB,-1.51219186371001e-003°)
2.32453791184044e+002	(-3.43519618006858e+001dB,-1.54706259954283e-003°)
2.37814112809615e+002	(-3.43519618008182e+001dB,-1.58273744512236e-003°)
2.43298042003741e+002	(-3.43519618009568e+001dB,-1.61923494300204e-003°)
2.48908429123558e+002	(-3.43519618011019e+001dB,-1.65657406332159e-003°)
2.54648190254671e+002	(-3.43519618012538e+001dB,-1.69477421366703e-003°)
2.60520308726827e+002	(-3.43519618014127e+001dB,-1.73385524915805e-003°)
2.66527836664555e+002	(-3.43519618015791e+001dB,-1.77383748276803e-003°)
2.72673896573548e+002	(-3.43519618017532e+001dB,-1.81474169588203e-003°)
2.78961682963638e+002	(-3.43519618019354e+001dB,-1.85658914909823e-003°)
2.85394464009191e+002	(-3.43519618021262e+001dB,-1.89940159327845e-003°)
2.91975583247790e+002	(-3.43519618023258e+001dB,-1.94320128085348e-003°)
2.98708461318093e+002	(-3.43519618025348e+001dB,-1.98801097738918e-003°)
3.05596597737760e+002	(-3.43519618027535e+001dB,-2.03385397341917e-003°)
3.12643572722382e+002	(-3.43519618029824e+001dB,-2.08075409655048e-003°)
3.19853049046357e+002	(-3.43519618032220e+001dB,-2.12873572384832e-003°)
3.27228773946669e+002	(-3.43519618034727e+001dB,-2.17782379450642e-003°)
3.34774581070574e+002	(-3.43519618037352e+001dB,-2.22804382280957e-003°)
3.42494392468201e+002	(-3.43519618040099e+001dB,-2.27942191139504e-003°)
3.50392220631091e+002	(-3.43519618042974e+001dB,-2.33198476481989e-003°)
3.58472170577761e+002	(-3.43519618045984e+001dB,-2.38575970344100e-003°)
3.66738441987342e+002	(-3.43519618049133e+001dB,-2.44077467761530e-003°)
3.75195331382433e+002	(-3.43519618052430e+001dB,-2.49705828222738e-003°)
3.83847234362282e+002	(-3.43519618055881e+001dB,-2.55463977155213e-003°)
3.92698647887470e+002	(-3.43519618059492e+001dB,-2.61354907446008e-003°)
4.01754172617274e+002	(-3.43519618063272e+001dB,-2.67381680997342e-003°)
4.11018515300929e+002	(-3.43519618067228e+001dB,-2.73547430318069e-003°)
4.20496491224037e+002	(-3.43519618071369e+001dB,-2.79855360151850e-003°)
4.30193026711386e+002	(-3.43519618075703e+001dB,-2.86308749142865e-003°)
4.40113161687482e+002	(-3.43519618080239e+001dB,-2.92910951539941e-003°)
4.50262052296127e+002	(-3.43519618084987e+001dB,-2.99665398939971e-003°)
4.60644973580410e+002	(-3.43519618089956e+001dB,-3.06575602071548e-003°)
4.71267322224483e+002	(-3.43519618095157e+001dB,-3.13645152619707e-003°)
4.82134619358582e+002	(-3.43519618100601e+001dB,-3.20877725092773e-003°)
4.93252513428712e+002	(-3.43519618106299e+001dB,-3.28277078732231e-003°)
5.04626783132516e+002	(-3.43519618112262e+001dB,-3.35847059466658e-003°)
5.16263340422846e+002	(-3.43519618118504e+001dB,-3.43591601910700e-003°)
5.28168233580588e+002	(-3.43519618125037e+001dB,-3.51514731410147e-003°)
5.40347650358352e+002	(-3.43519618131875e+001dB,-3.59620566134171e-003°)
5.52807921196649e+002	(-3.43519618139031e+001dB,-3.67913319215810e-003°)
5.65555522514243e+002	(-3.43519618146522e+001dB,-3.76397300941801e-003°)
5.78597080074360e+002	(-3.43519618154362e+001dB,-3.85076920992925e-003°)
5.91939372428539e+002	(-3.43519618162567e+001dB,-3.93956690736005e-003°)
6.05589334439886e+002	(-3.43519618171156e+001dB,-4.03041225568754e-003°)
6.19554060887574e+002	(-3.43519618180145e+001dB,-4.12335247318701e-003°)
6.33840810154470e+002	(-3.43519618189554e+001dB,-4.21843586697439e-003°)
6.48457007999789e+002	(-3.43519618199401e+001dB,-4.31571185811450e-003°)
6.63410251418746e+002	(-3.43519618209708e+001dB,-4.41523100730851e-003°)
6.78708312591213e+002	(-3.43519618220496e+001dB,-4.51704504117358e-003°)
6.94359142921431e+002	(-3.43519618231786e+001dB,-4.62120687912858e-003°)
7.10370877170875e+002	(-3.43519618243604e+001dB,-4.72777066089976e-003°)
7.26751837686421e+002	(-3.43519618255973e+001dB,-4.83679177466072e-003°)
7.43510538726017e+002	(-3.43519618268919e+001dB,-4.94832688582122e-003°)
7.60655690884097e+002	(-3.43519618282469e+001dB,-5.06243396647994e-003°)
7.78196205619051e+002	(-3.43519618296651e+001dB,-5.17917232555633e-003°)
7.96141199885091e+002	(-3.43519618311495e+001dB,-5.29860263961733e-003°)
8.14500000870932e+002	(-3.43519618327031e+001dB,-5.42078698441495e-003°)
8.33282150847739e+002	(-3.43519618343292e+001dB,-5.54578886715107e-003°)
8.52497412128872e+002	(-3.43519618360311e+001dB,-5.67367325948630e-003°)
8.72155772144002e+002	(-3.43519618378125e+001dB,-5.80450663130997e-003°)
8.92267448630227e+002	(-3.43519618396769e+001dB,-5.93835698528885e-003°)
9.12842894942904e+002	(-3.43519618416284e+001dB,-6.07529389221261e-003°)
9.33892805488941e+002	(-3.43519618436709e+001dB,-6.21538852715425e-003°)
9.55428121285379e+002	(-3.43519618458086e+001dB,-6.35871370646444e-003°)
9.77460035646155e+002	(-3.43519618480461e+001dB,-6.50534392561893e-003°)
1.00000000000000e+003	(-3.43519618503879e+001dB,-6.65535539793866e-003°)
1.02305972984251e+003	(-3.43519618528391e+001dB,-6.80882609420284e-003°)
1.04665121082543e+003	(-3.43519618554045e+001dB,-6.96583578317539e-003°)
1.07078670498640e+003	(-3.43519618580897e+001dB,-7.12646607306597e-003°)
1.09547875712234e+003	(-3.43519618609001e+001dB,-7.29080045394709e-003°)
1.12074020130978e+003	(-3.43519618638416e+001dB,-7.45892434114930e-003°)
1.14658416757563e+003	(-3.43519618669203e+001dB,-7.63092511965712e-003°)
1.17302408872162e+003	(-3.43519618701427e+001dB,-7.80689218952864e-003°)
1.20007370730629e+003	(-3.43519618735154e+001dB,-7.98691701236260e-003°)
1.22774708278787e+003	(-3.43519618770454e+001dB,-8.17109315883690e-003°)
1.25605859883189e+003	(-3.43519618807401e+001dB,-8.35951635734330e-003°)
1.28502297078731e+003	(-3.43519618846072e+001dB,-8.55228454374375e-003°)
1.31465525333509e+003	(-3.43519618886547e+001dB,-8.74949791227395e-003°)
1.34497084831303e+003	(-3.43519618928910e+001dB,-8.95125896762083e-003°)
1.37598551272118e+003	(-3.43519618973249e+001dB,-9.15767257820084e-003°)
1.40771536691173e+003	(-3.43519619019657e+001dB,-9.36884603066685e-003°)
1.44017690296787e+003	(-3.43519619068230e+001dB,-9.58488908567201e-003°)
1.47338699327573e+003	(-3.43519619119069e+001dB,-9.80591403491940e-003°)
1.50736289929413e+003	(-3.43519619172279e+001dB,-1.00320357595273e-002°)
1.54212228052647e+003	(-3.43519619227972e+001dB,-1.02633717897405e-002°)
1.57768320369953e+003	(-3.43519619286263e+001dB,-1.05000423660178e-002°)
1.61406415215390e+003	(-3.43519619347273e+001dB,-1.07421705015296e-002°)
1.65128403545105e+003	(-3.43519619411129e+001dB,-1.09898820460949e-002°)
1.68936219920180e+003	(-3.43519619477965e+001dB,-1.12433057515942e-002°)
1.72831843512154e+003	(-3.43519619547918e+001dB,-1.15025733388898e-002°)
1.76817299131727e+003	(-3.43519619621135e+001dB,-1.17678195662896e-002°)
1.80894658281186e+003	(-3.43519619697768e+001dB,-1.20391822995899e-002°)
1.85066040231103e+003	(-3.43519619777975e+001dB,-1.23168025837328e-002°)
1.89333613121855e+003	(-3.43519619861924e+001dB,-1.26008247161163e-002°)
1.93699595090551e+003	(-3.43519619949790e+001dB,-1.28913963215954e-002°)
1.98166255423943e+003	(-3.43519620041754e+001dB,-1.31886684292116e-002°)
2.02735915737920e+003	(-3.43519620138009e+001dB,-1.34927955506924e-002°)
2.07410951184210e+003	(-3.43519620238755e+001dB,-1.38039357607614e-002°)
2.12193791684896e+003	(-3.43519620344200e+001dB,-1.41222507792992e-002°)
2.17086923195407e+003	(-3.43519620454564e+001dB,-1.44479060554000e-002°)
2.22092888996635e+003	(-3.43519620570077e+001dB,-1.47810708533656e-002°)
2.27214291016839e+003	(-3.43519620690979e+001dB,-1.51219183406832e-002°)
2.32453791184045e+003	(-3.43519620817521e+001dB,-1.54706256780313e-002°)
2.37814112809616e+003	(-3.43519620949966e+001dB,-1.58273741113613e-002°)
2.43298042003742e+003	(-3.43519621088590e+001dB,-1.61923490661026e-002°)
2.48908429123559e+003	(-3.43519621233681e+001dB,-1.65657402435398e-002°)
2.54648190254672e+003	(-3.43519621385541e+001dB,-1.69477417194125e-002°)
2.60520308726828e+003	(-3.43519621544485e+001dB,-1.73385520447886e-002°)
2.66527836664556e+003	(-3.43519621710844e+001dB,-1.77383743492638e-002°)
2.72673896573549e+003	(-3.43519621884964e+001dB,-1.81474164465405e-002°)
2.78961682963639e+003	(-3.43519622067206e+001dB,-1.85658909424421e-002°)
2.85394464009192e+003	(-3.43519622257951e+001dB,-1.89940153454172e-002°)
2.91975583247791e+003	(-3.43519622457594e+001dB,-1.94320121795920e-002°)
2.98708461318094e+003	(-3.43519622666551e+001dB,-1.98801091004304e-002°)
3.05596597737761e+003	(-3.43519622885256e+001dB,-2.03385390130604e-002°)
3.12643572722383e+003	(-3.43519623114163e+001dB,-2.08075401933293e-002°)
3.19853049046358e+003	(-3.43519623353750e+001dB,-2.12873564116501e-002°)
3.27228773946670e+003	(-3.43519623604513e+001dB,-2.17782370597046e-002°)
3.34774581070575e+003	(-3.43519623866975e+001dB,-2.22804372800666e-002°)
3.42494392468202e+003	(-3.43519624141681e+001dB,-2.27942180988157e-002°)
3.50392220631093e+003	(-3.43519624429202e+001dB,-2.33198465612083e-002°)
3.58472170577762e+003	(-3.43519624730137e+001dB,-2.38575958704772e-002°)
3.66738441987343e+003	(-3.43519625045111e+001dB,-2.44077455298315e-002°)
3.75195331382434e+003	(-3.43519625374778e+001dB,-2.49705814877315e-002°)
3.83847234362283e+003	(-3.43519625719825e+001dB,-2.55463962865134e-002°)
3.92698647887472e+003	(-3.43519626080968e+001dB,-2.61354892144404e-002°)
4.01754172617275e+003	(-3.43519626458960e+001dB,-2.67381664612610e-002°)
4.11018515300930e+003	(-3.43519626854585e+001dB,-2.73547412773539e-002°)
4.20496491224038e+003	(-3.43519627268667e+001dB,-2.79855341365423e-002°)
4.30193026711388e+003	(-3.43519627702066e+001dB,-2.86308729026631e-002°)
4.40113161687483e+003	(-3.43519628155683e+001dB,-2.92910929999767e-002°)
4.50262052296129e+003	(-3.43519628630463e+001dB,-2.99665375875062e-002°)
4.60644973580411e+003	(-3.43519629127391e+001dB,-3.06575577373971e-002°)
4.71267322224485e+003	(-3.43519629647502e+001dB,-3.13645126173894e-002°)
4.82134619358584e+003	(-3.43519630191877e+001dB,-3.20877696774970e-002°)
4.93252513428714e+003	(-3.43519630761647e+001dB,-3.28277048409927e-002°)
5.04626783132518e+003	(-3.43519631357998e+001dB,-3.35847026997961e-002°)
5.16263340422848e+003	(-3.43519631982169e+001dB,-3.43591567143672e-002°)
5.28168233580590e+003	(-3.43519632635458e+001dB,-3.51514694182099e-002°)
5.40347650358354e+003	(-3.43519633319225e+001dB,-3.59620526270895e-002°)
5.52807921196651e+003	(-3.43519634034889e+001dB,-3.67913276530766e-002°)
5.65555522514245e+003	(-3.43519634783941e+001dB,-3.76397255235246e-002°)
5.78597080074362e+003	(-3.43519635567936e+001dB,-3.85076872050977e-002°)
5.91939372428541e+003	(-3.43519636388506e+001dB,-3.93956638329640e-002°)
6.05589334439888e+003	(-3.43519637247357e+001dB,-4.03041169452738e-002°)
6.19554060887576e+003	(-3.43519638146273e+001dB,-4.12335187230441e-002°)
6.33840810154473e+003	(-3.43519639087126e+001dB,-4.21843522355752e-002°)
6.48457007999792e+003	(-3.43519640071870e+001dB,-4.31571116915250e-002°)
6.63410251418748e+003	(-3.43519641102554e+001dB,-4.41523026957740e-002°)
6.78708312591215e+003	(-3.43519642181320e+001dB,-4.51704425122115e-002°)
6.94359142921434e+003	(-3.43519643310412e+001dB,-4.62120603325825e-002°)
7.10370877170878e+003	(-3.43519644492178e+001dB,-4.72776975515330e-002°)
7.26751837686424e+003	(-3.43519645729074e+001dB,-4.83679080479969e-002°)
7.43510538726020e+003	(-3.43519647023673e+001dB,-4.94832584730716e-002°)
7.60655690884100e+003	(-3.43519648378666e+001dB,-5.06243285445314e-002°)
7.78196205619054e+003	(-3.43519649796872e+001dB,-5.17917113481306e-002°)
7.96141199885094e+003	(-3.43519651281239e+001dB,-5.29860136458552e-002°)
8.14500000870935e+003	(-3.43519652834853e+001dB,-5.42078561912809e-002°)
8.33282150847742e+003	(-3.43519654460945e+001dB,-5.54578740522031e-002°)
8.52497412128875e+003	(-3.43519656162896e+001dB,-5.67367169407054e-002°)
8.72155772144005e+003	(-3.43519657944245e+001dB,-5.80450495508385e-002°)
8.92267448630230e+003	(-3.43519659808696e+001dB,-5.93835519040848e-002°)
9.12842894942908e+003	(-3.43519661760126e+001dB,-6.07529197027885e-002°)
9.33892805488945e+003	(-3.43519663802592e+001dB,-6.21538646917341e-002°)
9.55428121285382e+003	(-3.43519665940341e+001dB,-6.35871150280621e-002°)
9.77460035646159e+003	(-3.43519668177820e+001dB,-6.50534156597128e-002°)
1.00000000000001e+004	(-3.43519670519679e+001dB,-6.65535287125963e-002°)
1.02305972984252e+004	(-3.43519672970788e+001dB,-6.80882338866884e-002°)
1.04665121082544e+004	(-3.43519675536245e+001dB,-6.96583288612588e-002°)
1.07078670498640e+004	(-3.43519678221383e+001dB,-7.12646297094421e-002°)
1.09547875712234e+004	(-3.43519681031786e+001dB,-7.29079713223671e-002°)
1.12074020130979e+004	(-3.43519683973298e+001dB,-7.45892078430636e-002°)
1.14658416757563e+004	(-3.43519687052034e+001dB,-7.63092131103737e-002°)
1.17302408872162e+004	(-3.43519690274397e+001dB,-7.80688811130966e-002°)
1.20007370730630e+004	(-3.43519693647086e+001dB,-7.98691264546037e-002°)
1.22774708278788e+004	(-3.43519697177116e+001dB,-8.17108848281649e-002°)
1.25605859883190e+004	(-3.43519700871825e+001dB,-8.35951135032330e-002°)
1.28502297078732e+004	(-3.43519704738897e+001dB,-8.55227918229381e-002°)
1.31465525333509e+004	(-3.43519708786372e+001dB,-8.74949217130519e-002°)
1.34497084831303e+004	(-3.43519713022666e+001dB,-8.95125282026839e-002°)
1.37598551272118e+004	(-3.43519717456588e+001dB,-9.15766599569820e-002°)
1.40771536691174e+004	(-3.43519722097357e+001dB,-9.36883898221123e-002°)
1.44017690296787e+004	(-3.43519726954623e+001dB,-9.58488153828017e-002°)
1.47338699327573e+004	(-3.43519732038486e+001dB,-9.80590595327336e-002°)
1.50736289929414e+004	(-3.43519737359517e+001dB,-1.00320271058091e-001°)
1.54212228052648e+004	(-3.43519742928779e+001dB,-1.02633625234549e-001°)
1.57768320369953e+004	(-3.43519748757854e+001dB,-1.05000324438035e-001°)
1.61406415215391e+004	(-3.43519754858861e+001dB,-1.07421598769555e-001°)
1.65128403545105e+004	(-3.43519761244486e+001dB,-1.09898706694435e-001°)
1.68936219920180e+004	(-3.43519767928008e+001dB,-1.12432935696285e-001°)
1.72831843512154e+004	(-3.43519774923323e+001dB,-1.15025602946044e-001°)
1.76817299131727e+004	(-3.43519782244976e+001dB,-1.17678055986439e-001°)
1.80894658281187e+004	(-3.43519789908193e+001dB,-1.20391673432224e-001°)
1.85066040231104e+004	(-3.43519797928906e+001dB,-1.23167865686552e-001°)
1.89333613121856e+004	(-3.43519806323793e+001dB,-1.26008075673865e-001°)
1.93699595090552e+004	(-3.43519815110311e+001dB,-1.28913779589660e-001°)
1.98166255423944e+004	(-3.43519824306728e+001dB,-1.31886487667548e-001°)
2.02735915737921e+004	(-3.43519833932167e+001dB,-1.34927744963982e-001°)
2.07410951184211e+004	(-3.43519844006643e+001dB,-1.38039132161065e-001°)
2.12193791684897e+004	(-3.43519854551102e+001dB,-1.41222266387863e-001°)
2.17086923195408e+004	(-3.43519865587470e+001dB,-1.44478802060639e-001°)
2.22092888996636e+004	(-3.43519877138695e+001dB,-1.47810431742449e-001°)
2.27214291016840e+004	(-3.43519889228796e+001dB,-1.51218887022539e-001°)
2.32453791184046e+004	(-3.43519901882910e+001dB,-1.54705939416011e-001°)
2.37814112809617e+004	(-3.43519915127351e+001dB,-1.58273401284203e-001°)
2.43298042003743e+004	(-3.43519928989656e+001dB,-1.61923126776285e-001°)
2.48908429123560e+004	(-3.43519943498650e+001dB,-1.65657012792537e-001°)
2.54648190254673e+004	(-3.43519958684501e+001dB,-1.69476999969820e-001°)
2.60520308726829e+004	(-3.43519974578784e+001dB,-1.73385073689749e-001°)
2.66527836664557e+004	(-3.43519991214549e+001dB,-1.77383265110077e-001°)
2.72673896573550e+004	(-3.43520008626385e+001dB,-1.81473652219847e-001°)
2.78961682963640e+004	(-3.43520026850497e+001dB,-1.85658360918830e-001°)
2.85394464009193e+004	(-3.43520045924778e+001dB,-1.89939566121835e-001°)
2.91975583247792e+004	(-3.43520065888888e+001dB,-1.94319492888440e-001°)
2.98708461318095e+004	(-3.43520086784338e+001dB,-1.98800417578735e-001°)
3.05596597737762e+004	(-3.43520108654576e+001dB,-2.03384669035681e-001°)
3.12643572722385e+004	(-3.43520131545074e+001dB,-2.08074629794686e-001°)
3.19853049046360e+004	(-3.43520155503429e+001dB,-2.12872737321026e-001°)
3.27228773946671e+004	(-3.43520180579456e+001dB,-2.17781485275756e-001°)
3.34774581070577e+004	(-3.43520206825295e+001dB,-2.22803424810749e-001°)
3.42494392468203e+004	(-3.43520234295516e+001dB,-2.27941165893550e-001°)
3.50392220631094e+004	(-3.43520263047238e+001dB,-2.33197378662714e-001°)
3.58472170577764e+004	(-3.43520293140242e+001dB,-2.38574794814330e-001°)
3.66738441987345e+004	(-3.43520324637099e+001dB,-2.44076209020455e-001°)
3.75195331382435e+004	(-3.43520357603297e+001dB,-2.49704480380170e-001°)
3.83847234362285e+004	(-3.43520392107382e+001dB,-2.55462533904025e-001°)
3.92698647887473e+004	(-3.43520428221094e+001dB,-2.61353362032621e-001°)
4.01754172617277e+004	(-3.43520466019523e+001dB,-2.67380026190125e-001°)
4.11018515300932e+004	(-3.43520505581259e+001dB,-2.73545658373497e-001°)
4.20496491224040e+004	(-3.43520546988558e+001dB,-2.79853462778274e-001°)
4.30193026711389e+004	(-3.43520590327516e+001dB,-2.86306717461709e-001°)
4.40113161687485e+004	(-3.43520635688242e+001dB,-2.92908776044162e-001°)
4.50262052296131e+004	(-3.43520683165050e+001dB,-2.99663069449571e-001°)
4.60644973580413e+004	(-3.43520732856653e+001dB,-3.06573107685939e-001°)
4.71267322224487e+004	(-3.43520784866367e+001dB,-3.13642481666709e-001°)
4.82134619358586e+004	(-3.43520839302331e+001dB,-3.20874865073994e-001°)
4.93252513428716e+004	(-3.43520896277725e+001dB,-3.28274016264589e-001°)
