Freq.	V(v0)
1.00000000000000e+002	1.91602825885235e-002,-2.22561751887679e-007
1.02305972984251e+002	1.91602825884091e-002,-2.27693965758169e-007
1.04665121082543e+002	1.91602825882894e-002,-2.32944527093914e-007
1.07078670498640e+002	1.91602825881641e-002,-2.38316164955486e-007
1.09547875712233e+002	1.91602825880330e-002,-2.43811671334853e-007
1.12074020130978e+002	1.91602825878957e-002,-2.49433902606564e-007
1.14658416757562e+002	1.91602825877521e-002,-2.55185781012393e-007
1.17302408872161e+002	1.91602825876017e-002,-2.61070296180219e-007
1.20007370730629e+002	1.91602825874443e-002,-2.67090506677931e-007
1.22774708278787e+002	1.91602825872796e-002,-2.73249541603168e-007
1.25605859883189e+002	1.91602825871072e-002,-2.79550602209715e-007
1.28502297078731e+002	1.91602825869268e-002,-2.85996963571400e-007
1.31465525333508e+002	1.91602825867379e-002,-2.92591976284373e-007
1.34497084831302e+002	1.91602825865402e-002,-2.99339068208621e-007
1.37598551272117e+002	1.91602825863333e-002,-3.06241746249657e-007
1.40771536691173e+002	1.91602825861168e-002,-3.13303598181288e-007
1.44017690296786e+002	1.91602825858902e-002,-3.20528294510412e-007
1.47338699327572e+002	1.91602825856529e-002,-3.27919590384826e-007
1.50736289929412e+002	1.91602825854046e-002,-3.35481327545017e-007
1.54212228052647e+002	1.91602825851448e-002,-3.43217436320970e-007
1.57768320369952e+002	1.91602825848728e-002,-3.51131937675017e-007
1.61406415215389e+002	1.91602825845881e-002,-3.59228945291791e-007
1.65128403545104e+002	1.91602825842901e-002,-3.67512667716383e-007
1.68936219920179e+002	1.91602825839783e-002,-3.75987410541792e-007
1.72831843512153e+002	1.91602825836519e-002,-3.84657578646830e-007
1.76817299131726e+002	1.91602825833102e-002,-3.93527678485619e-007
1.80894658281185e+002	1.91602825829527e-002,-4.02602320429896e-007
1.85066040231103e+002	1.91602825825784e-002,-4.11886221165321e-007
1.89333613121855e+002	1.91602825821867e-002,-4.21384206143049e-007
1.93699595090551e+002	1.91602825817767e-002,-4.31101212087834e-007
1.98166255423942e+002	1.91602825813476e-002,-4.41042289563964e-007
2.02735915737920e+002	1.91602825808985e-002,-4.51212605600374e-007
2.07410951184210e+002	1.91602825804284e-002,-4.61617446376288e-007
2.12193791684895e+002	1.91602825799364e-002,-4.72262219968787e-007
2.17086923195407e+002	1.91602825794214e-002,-4.83152459163750e-007
2.22092888996634e+002	1.91602825788824e-002,-4.94293824331598e-007
2.27214291016839e+002	1.91602825783182e-002,-5.05692106369361e-007
2.32453791184044e+002	1.91602825777278e-002,-5.17353229710583e-007
2.37814112809615e+002	1.91602825771098e-002,-5.29283255404644e-007
2.43298042003741e+002	1.91602825764630e-002,-5.41488384267078e-007
2.48908429123558e+002	1.91602825757859e-002,-5.53974960102546e-007
2.54648190254671e+002	1.91602825750773e-002,-5.66749473002124e-007
2.60520308726827e+002	1.91602825743357e-002,-5.79818562716629e-007
2.66527836664555e+002	1.91602825735595e-002,-5.93189022107732e-007
2.72673896573548e+002	1.91602825727470e-002,-6.06867800678650e-007
2.78961682963638e+002	1.91602825718966e-002,-6.20862008186263e-007
2.85394464009191e+002	1.91602825710066e-002,-6.35178918336511e-007
2.91975583247790e+002	1.91602825700750e-002,-6.49825972565023e-007
2.98708461318093e+002	1.91602825691000e-002,-6.64810783904913e-007
3.05596597737760e+002	1.91602825680795e-002,-6.80141140943771e-007
3.12643572722382e+002	1.91602825670114e-002,-6.95825011871902e-007
3.19853049046357e+002	1.91602825658935e-002,-7.11870548623918e-007
3.27228773946669e+002	1.91602825647234e-002,-7.28286091115825e-007
3.34774581070574e+002	1.91602825634987e-002,-7.45080171579829e-007
3.42494392468201e+002	1.91602825622169e-002,-7.62261518999089e-007
3.50392220631091e+002	1.91602825608753e-002,-7.79839063644745e-007
3.58472170577761e+002	1.91602825594711e-002,-7.97821941717560e-007
3.66738441987342e+002	1.91602825580014e-002,-8.16219500096600e-007
3.75195331382433e+002	1.91602825564632e-002,-8.35041301197420e-007
3.83847234362282e+002	1.91602825548531e-002,-8.54297127942274e-007
3.92698647887470e+002	1.91602825531680e-002,-8.73996988844941e-007
4.01754172617274e+002	1.91602825514043e-002,-8.94151123212799e-007
4.11018515300929e+002	1.91602825495582e-002,-9.14770006468865e-007
4.20496491224037e+002	1.91602825476261e-002,-9.35864355596554e-007
4.30193026711386e+002	1.91602825456038e-002,-9.57445134709997e-007
4.40113161687482e+002	1.91602825434872e-002,-9.79523560752804e-007
4.50262052296127e+002	1.91602825412718e-002,-1.00211110932824e-006
4.60644973580410e+002	1.91602825389531e-002,-1.02521952066386e-006
4.71267322224483e+002	1.91602825365262e-002,-1.04886080571364e-006
4.82134619358582e+002	1.91602825339861e-002,-1.07304725240087e-006
4.93252513428712e+002	1.91602825313275e-002,-1.09779143200502e-006
5.04626783132516e+002	1.91602825285449e-002,-1.12310620569579e-006
5.16263340422846e+002	1.91602825256324e-002,-1.14900473121795e-006
5.28168233580588e+002	1.91602825225841e-002,-1.17550046973024e-006
5.40347650358352e+002	1.91602825193936e-002,-1.20260719280205e-006
5.52807921196649e+002	1.91602825160542e-002,-1.23033898957137e-006
5.65555522514243e+002	1.91602825125591e-002,-1.25871027406785e-006
5.78597080074360e+002	1.91602825089009e-002,-1.28773579270469e-006
5.91939372428539e+002	1.91602825050720e-002,-1.31743063194333e-006
6.05589334439886e+002	1.91602825010645e-002,-1.34781022613486e-006
6.19554060887574e+002	1.91602824968701e-002,-1.37889036554225e-006
6.33840810154470e+002	1.91602824924800e-002,-1.41068720454759e-006
6.48457007999789e+002	1.91602824878850e-002,-1.44321727004853e-006
6.63410251418746e+002	1.91602824830758e-002,-1.47649747004846e-006
6.78708312591213e+002	1.91602824780421e-002,-1.51054510244461e-006
6.94359142921431e+002	1.91602824727737e-002,-1.54537786401896e-006
7.10370877170875e+002	1.91602824672594e-002,-1.58101385963636e-006
7.26751837686421e+002	1.91602824614879e-002,-1.61747161165483e-006
7.43510538726017e+002	1.91602824554472e-002,-1.65477006955281e-006
7.60655690884097e+002	1.91602824491247e-002,-1.69292861977844e-006
7.78196205619051e+002	1.91602824425072e-002,-1.73196709582596e-006
7.96141199885091e+002	1.91602824355810e-002,-1.77190578854445e-006
8.14500000870932e+002	1.91602824283316e-002,-1.81276545668429e-006
8.33282150847739e+002	1.91602824207441e-002,-1.85456733768686e-006
8.52497412128872e+002	1.91602824128027e-002,-1.89733315872297e-006
8.72155772144002e+002	1.91602824044907e-002,-1.94108514798588e-006
8.92267448630227e+002	1.91602823957910e-002,-1.98584604624474e-006
9.12842894942904e+002	1.91602823866854e-002,-2.03163911866444e-006
9.33892805488941e+002	1.91602823771550e-002,-2.07848816689799e-006
9.55428121285379e+002	1.91602823671801e-002,-2.12641754145779e-006
9.77460035646155e+002	1.91602823567398e-002,-2.17545215437216e-006
1.00000000000000e+003	1.91602823458124e-002,-2.22561749213371e-006
1.02305972984251e+003	1.91602823343753e-002,-2.27693962894630e-006
1.04665121082543e+003	1.91602823224046e-002,-2.32944524027750e-006
1.07078670498640e+003	1.91602823098754e-002,-2.38316161672352e-006
1.09547875712234e+003	1.91602822967618e-002,-2.43811667819392e-006
1.12074020130978e+003	1.91602822830364e-002,-2.49433898842329e-006
1.14658416757563e+003	1.91602822686707e-002,-2.55185776981775e-006
1.17302408872162e+003	1.91602822536348e-002,-2.61070291864361e-006
1.20007370730629e+003	1.91602822378975e-002,-2.67090502056643e-006
1.22774708278787e+003	1.91602822214259e-002,-2.73249536654829e-006
1.25605859883189e+003	1.91602822041860e-002,-2.79550596911174e-006
1.28502297078731e+003	1.91602821861419e-002,-2.85996957897868e-006
1.31465525333509e+003	1.91602821672559e-002,-2.92591970209304e-006
1.34497084831303e+003	1.91602821474889e-002,-2.99339061703593e-006
1.37598551272118e+003	1.91602821267997e-002,-3.06241739284234e-006
1.40771536691173e+003	1.91602821051454e-002,-3.13303590722880e-006
1.44017690296787e+003	1.91602820824808e-002,-3.20528286524123e-006
1.47338699327573e+003	1.91602820587590e-002,-3.27919581833288e-006
1.50736289929413e+003	1.91602820339304e-002,-3.35481318388219e-006
1.54212228052647e+003	1.91602820079436e-002,-3.43217426516067e-006
1.57768320369953e+003	1.91602819807445e-002,-3.51131927176132e-006
1.61406415215390e+003	1.91602819522765e-002,-3.59228934049799e-006
1.65128403545105e+003	1.91602819224805e-002,-3.67512655678683e-006
1.68936219920180e+003	1.91602818912944e-002,-3.75987397652058e-006
1.72831843512154e+003	1.91602818586534e-002,-3.84657564844748e-006
1.76817299131727e+003	1.91602818244897e-002,-3.93527663706608e-006
1.80894658281186e+003	1.91602817887322e-002,-4.02602304604802e-006
1.85066040231103e+003	1.91602817513067e-002,-4.11886204220095e-006
1.89333613121855e+003	1.91602817121351e-002,-4.21384187998401e-006
1.93699595090551e+003	1.91602816711362e-002,-4.31101192658861e-006
1.98166255423943e+003	1.91602816282246e-002,-4.41042268759753e-006
2.02735915737920e+003	1.91602815833111e-002,-4.51212583323577e-006
2.07410951184210e+003	1.91602815363023e-002,-4.61617422522663e-006
2.12193791684896e+003	1.91602814871006e-002,-4.72262194426718e-006
2.17086923195407e+003	1.91602814356035e-002,-4.83152431813718e-006
2.22092888996635e+003	1.91602813817040e-002,-4.94293795045621e-006
2.27214291016839e+003	1.91602813252901e-002,-5.05692075010401e-006
2.32453791184045e+003	1.91602812662443e-002,-5.17353196131900e-006
2.37814112809616e+003	1.91602812044440e-002,-5.29283219449111e-006
2.43298042003742e+003	1.91602811397607e-002,-5.41488345766447e-006
2.48908429123559e+003	1.91602810720598e-002,-5.53974918876656e-006
2.54648190254672e+003	1.91602810012005e-002,-5.66749428858064e-006
2.60520308726828e+003	1.91602809270357e-002,-5.79818515447832e-006
2.66527836664556e+003	1.91602808494109e-002,-5.93188971493007e-006
2.72673896573549e+003	1.91602807681648e-002,-6.06867746481151e-006
2.78961682963639e+003	1.91602806831285e-002,-6.20861950152376e-006
2.85394464009192e+003	1.91602805941251e-002,-6.35178856194671e-006
2.91975583247791e+003	1.91602805009697e-002,-6.49825906024443e-006
2.98708461318094e+003	1.91602804034684e-002,-6.64810712654219e-006
3.05596597737761e+003	1.91602803014186e-002,-6.80141064649550e-006
3.12643572722383e+003	1.91602801946080e-002,-6.95824930177140e-006
3.19853049046358e+003	1.91602800828146e-002,-7.11870461146327e-006
3.27228773946670e+003	1.91602799658059e-002,-7.28285997446060e-006
3.34774581070575e+003	1.91602798433386e-002,-7.45080071279564e-006
3.42494392468202e+003	1.91602797151580e-002,-7.62261411598975e-006
3.50392220631093e+003	1.91602795809977e-002,-7.79838948642206e-006
3.58472170577762e+003	1.91602794405786e-002,-7.97821818574445e-006
3.66738441987343e+003	1.91602792936088e-002,-8.16219368236665e-006
3.75195331382434e+003	1.91602791397828e-002,-8.35041160003631e-006
3.83847234362283e+003	1.91602789787805e-002,-8.54296976753918e-006
3.92698647887472e+003	1.91602788102673e-002,-8.73996826954535e-006
4.01754172617275e+003	1.91602786338927e-002,-8.94150949862781e-006
4.11018515300930e+003	1.91602784492900e-002,-9.14769820848046e-006
4.20496491224038e+003	1.91602782560755e-002,-9.35864156836326e-006
4.30193026711388e+003	1.91602780538472e-002,-9.57444921880264e-006
4.40113161687483e+003	1.91602778421847e-002,-9.79523332857633e-006
4.50262052296129e+003	1.91602776206480e-002,-1.00211086530120e-005
4.60644973580411e+003	1.91602773887763e-002,-1.02521925936302e-005
4.71267322224485e+003	1.91602771460874e-002,-1.04886052591625e-005
4.82134619358584e+003	1.91602768920769e-002,-1.07304695279764e-005
4.93252513428714e+003	1.91602766262165e-002,-1.09779111119394e-005
5.04626783132518e+003	1.91602763479534e-002,-1.12310586217563e-005
5.16263340422848e+003	1.91602760567089e-002,-1.14900436338120e-005
5.28168233580590e+003	1.91602757518776e-002,-1.17550007585562e-005
5.40347650358354e+003	1.91602754328255e-002,-1.20260677104643e-005
5.52807921196651e+003	1.91602750988893e-002,-1.23033853796114e-005
5.65555522514245e+003	1.91602747493746e-002,-1.25870979048970e-005
5.78597080074362e+003	1.91602743835546e-002,-1.28773527489572e-005
5.91939372428541e+003	1.91602740006686e-002,-1.31743007748046e-005
6.05589334439888e+003	1.91602735999206e-002,-1.34780963242348e-005
6.19554060887576e+003	1.91602731804772e-002,-1.37888972980408e-005
6.33840810154473e+003	1.91602727414663e-002,-1.41068652380769e-005
6.48457007999792e+003	1.91602722819751e-002,-1.44321654112140e-005
6.63410251418748e+003	1.91602718010480e-002,-1.47649668952306e-005
6.78708312591215e+003	1.91602712976851e-002,-1.51054426666849e-005
6.94359142921434e+003	1.91602707708397e-002,-1.54537696908110e-005
7.10370877170878e+003	1.91602702194165e-002,-1.58101290134891e-005
7.26751837686424e+003	1.91602696422686e-002,-1.61747058553347e-005
7.43510538726020e+003	1.91602690381962e-002,-1.65476897079580e-005
7.60655690884100e+003	1.91602684059431e-002,-1.69292744324415e-005
7.78196205619054e+003	1.91602677441947e-002,-1.73196583600880e-005
7.96141199885094e+003	1.91602670515749e-002,-1.77190443954911e-005
8.14500000870935e+003	1.91602663266437e-002,-1.81276401219814e-005
8.33282150847742e+003	1.91602655678936e-002,-1.85456579095044e-005
8.52497412128875e+003	1.91602647737469e-002,-1.89733150249831e-005
8.72155772144005e+003	1.91602639425524e-002,-1.94108337452267e-005
8.92267448630230e+003	1.91602630725817e-002,-1.98584414724408e-005
9.12842894942908e+003	1.91602621620260e-002,-2.03163708523994e-005
9.33892805488945e+003	1.91602612089918e-002,-2.07848598953425e-005
9.55428121285382e+003	1.91602602114975e-002,-2.12641520996585e-005
9.77460035646159e+003	1.91602591674689e-002,-2.17544965784179e-005
1.00000000000001e+004	1.91602580747353e-002,-2.22561481888239e-005
1.02305972984252e+004	1.91602569310245e-002,-2.27693676646456e-005
1.04665121082544e+004	1.91602557339583e-002,-2.32944217517037e-005
1.07078670498640e+004	1.91602544810477e-002,-2.38315833464784e-005
1.09547875712234e+004	1.91602531696875e-002,-2.43811316379122e-005
1.12074020130979e+004	1.91602517971509e-002,-2.49433522524794e-005
1.14658416757563e+004	1.91602503605840e-002,-2.55185374025998e-005
1.17302408872162e+004	1.91602488569997e-002,-2.61069860384712e-005
1.20007370730630e+004	1.91602472832717e-002,-2.67090040034015e-005
1.22774708278788e+004	1.91602456361276e-002,-2.73249041927190e-005
1.25605859883190e+004	1.91602439121425e-002,-2.79550067163448e-005
1.28502297078732e+004	1.91602421077318e-002,-2.85996390651105e-005
1.31465525333509e+004	1.91602402191434e-002,-2.92591362809077e-005
1.34497084831303e+004	1.91602382424505e-002,-2.99338411307577e-005
1.37598551272118e+004	1.91602361735429e-002,-3.06241042848907e-005
1.40771536691174e+004	1.91602340081186e-002,-3.13302844989279e-005
1.44017690296787e+004	1.91602317416753e-002,-3.20527488002595e-005
1.47338699327573e+004	1.91602293695001e-002,-3.27918726787161e-005
1.50736289929414e+004	1.91602268866607e-002,-3.35480402816315e-005
1.54212228052648e+004	1.91602242879945e-002,-3.43216446133980e-005
1.57768320369953e+004	1.91602215680981e-002,-3.51130877396177e-005
1.61406415215391e+004	1.91602187213160e-002,-3.59227809959548e-005
1.65128403545105e+004	1.91602157417289e-002,-3.67511452017972e-005
1.68936219920180e+004	1.91602126231414e-002,-3.75986108788380e-005
1.72831843512154e+004	1.91602093590691e-002,-3.84656184746890e-005
1.76817299131727e+004	1.91602059427249e-002,-3.93526185916430e-005
1.80894658281187e+004	1.91602023670054e-002,-4.02600722207016e-005
1.85066040231104e+004	1.91601986244757e-002,-4.11884509809909e-005
1.89333613121856e+004	1.91601947073538e-002,-4.21382373646864e-005
1.93699595090552e+004	1.91601906074951e-002,-4.31099249875762e-005
1.98166255423944e+004	1.91601863163749e-002,-4.41040188453893e-005
2.02735915737921e+004	1.91601818250706e-002,-4.51210355760227e-005
2.07410951184211e+004	1.91601771242437e-002,-4.61615037278012e-005
2.12193791684897e+004	1.91601722041198e-002,-4.72259640339093e-005
2.17086923195408e+004	1.91601670544688e-002,-4.83149696931356e-005
2.22092888996636e+004	1.91601616645832e-002,-4.94290866570745e-005
2.27214291016840e+004	1.91601560232559e-002,-5.05688939239328e-005
2.32453791184046e+004	1.91601501187572e-002,-5.17349838390925e-005
2.37814112809617e+004	1.91601439388103e-002,-5.29279624025834e-005
2.43298042003743e+004	1.91601374705653e-002,-5.41484495836254e-005
2.48908429123560e+004	1.91601307005734e-002,-5.53970796423994e-005
2.54648190254673e+004	1.91601236147580e-002,-5.66745014592132e-005
2.60520308726829e+004	1.91601161983860e-002,-5.79813788712318e-005
2.66527836664557e+004	1.91601084360371e-002,-5.93183910169432e-005
2.72673896573550e+004	1.91601003115717e-002,-6.06862326885365e-005
2.78961682963640e+004	1.91600918080971e-002,-6.20856146923735e-005
2.85394464009193e+004	1.91600829079328e-002,-6.35172642177369e-005
2.91975583247792e+004	1.91600735925734e-002,-6.49819252140436e-005
2.98708461318095e+004	1.91600638426505e-002,-6.64803587767167e-005
3.05596597737762e+004	1.91600536378919e-002,-6.80133435419118e-005
3.12643572722385e+004	1.91600429570800e-002,-6.95816760902992e-005
3.19853049046360e+004	1.91600317780073e-002,-7.11861713601075e-005
3.27228773946671e+004	1.91600200774307e-002,-7.28276630696387e-005
3.34774581070577e+004	1.91600078310225e-002,-7.45070041494692e-005
3.42494392468203e+004	1.91599950133204e-002,-7.62250671845566e-005
3.50392220631094e+004	1.91599815976744e-002,-7.79827448664759e-005
3.58472170577764e+004	1.91599675561914e-002,-7.97809504560137e-005
3.66738441987345e+004	1.91599528596770e-002,-8.16206182563551e-005
3.75195331382435e+004	1.91599374775754e-002,-8.35027040971025e-005
3.83847234362285e+004	1.91599213779052e-002,-8.54281858293689e-005
3.92698647887473e+004	1.91599045271934e-002,-8.73980638321962e-005
4.01754172617277e+004	1.91598868904055e-002,-8.94133615305536e-005
4.11018515300932e+004	1.91598684308732e-002,-9.14751259251744e-005
4.20496491224040e+004	1.91598491102173e-002,-9.35844281344981e-005
4.30193026711389e+004	1.91598288882691e-002,-9.57423639489894e-005
4.40113161687485e+004	1.91598077229859e-002,-9.79500543981087e-005
4.50262052296131e+004	1.91597855703640e-002,-1.00208646330220e-004
4.60644973580413e+004	1.91597623843476e-002,-1.02519313005720e-004
4.71267322224487e+004	1.91597381167323e-002,-1.04883254703691e-004
4.82134619358586e+004	1.91597127170659e-002,-1.07301699342365e-004
4.93252513428716e+004	1.91596861325426e-002,-1.09775903113722e-004
5.04626783132520e+004	1.91596583078941e-002,-1.12307151132517e-004
5.16263340422851e+004	1.91596291852741e-002,-1.14896758100077e-004
5.28168233580593e+004	1.91595987041385e-002,-1.17546068983169e-004
5.40347650358356e+004	1.91595668011195e-002,-1.20256459708289e-004
5.52807921196654e+004	1.91595334098939e-002,-1.23029337871706e-004
5.65555522514248e+004	1.91594984610455e-002,-1.25866143465600e-004
5.78597080074365e+004	1.91594618819203e-002,-1.28768349620656e-004
5.91939372428544e+004	1.91594235964766e-002,-1.31737463365460e-004
6.05589334439890e+004	1.91593835251259e-002,-1.34775026403077e-004
6.19554060887579e+004	1.91593415845684e-002,-1.37882615905174e-004
6.33840810154475e+004	1.91592976876195e-002,-1.41061845324061e-004
6.48457007999794e+004	1.91592517430291e-002,-1.44314365223054e-004
6.63410251418751e+004	1.91592036552917e-002,-1.47641864125539e-004
6.78708312591218e+004	1.91591533244482e-002,-1.51046069383135e-004
6.94359142921437e+004	1.91591006458785e-002,-1.54528748063381e-004
7.10370877170881e+004	1.91590455100838e-002,-1.58091707857336e-004
7.26751837686427e+004	1.91589878024599e-002,-1.61736798007532e-004
7.43510538726023e+004	1.91589274030584e-002,-1.65465910256703e-004
7.60655690884103e+004	1.91588641863383e-002,-1.69280979817721e-004
7.78196205619057e+004	1.91587980209054e-002,-1.73183986365181e-004
7.96141199885098e+004	1.91587287692390e-002,-1.77176955049093e-004
8.14500000870939e+004	1.91586562874069e-002,-1.81261957531126e-004
8.33282150847746e+004	1.91585804247664e-002,-1.85441113043868e-004
8.52497412128879e+004	1.91585010236521e-002,-1.89716589473576e-004
8.72155772144009e+004	1.91584179190478e-002,-1.94090604466888e-004
