Freq.	V(vo)
1.00000000000000e+002	9.99956070861165e-004,-1.47782163354859e-009
1.02305972984251e+002	9.99956070860974e-004,-1.51189980099184e-009
1.04665121082543e+002	9.99956070860773e-004,-1.54676380175699e-009
1.07078670498640e+002	9.99956070860563e-004,-1.58243175694723e-009
1.09547875712233e+002	9.99956070860343e-004,-1.61892220553343e-009
1.12074020130978e+002	9.99956070860114e-004,-1.65625411399007e-009
1.14658416757562e+002	9.99956070859873e-004,-1.69444688615331e-009
1.17302408872161e+002	9.99956070859621e-004,-1.73352037330645e-009
1.20007370730629e+002	9.99956070859357e-004,-1.77349488449795e-009
1.22774708278787e+002	9.99956070859081e-004,-1.81439119709734e-009
1.25605859883189e+002	9.99956070858792e-004,-1.85623056759458e-009
1.28502297078731e+002	9.99956070858490e-004,-1.89903474264845e-009
1.31465525333508e+002	9.99956070858174e-004,-1.94282597038971e-009
1.34497084831302e+002	9.99956070857843e-004,-1.98762701198484e-009
1.37598551272117e+002	9.99956070857496e-004,-2.03346115346657e-009
1.40771536691173e+002	9.99956070857133e-004,-2.08035221783713e-009
1.44017690296786e+002	9.99956070856753e-004,-2.12832457745057e-009
1.47338699327572e+002	9.99956070856356e-004,-2.17740316668069e-009
1.50736289929412e+002	9.99956070855940e-004,-2.22761349488110e-009
1.54212228052647e+002	9.99956070855505e-004,-2.27898165964393e-009
1.57768320369952e+002	9.99956070855049e-004,-2.33153436036464e-009
1.61406415215389e+002	9.99956070854572e-004,-2.38529891211924e-009
1.65128403545104e+002	9.99956070854073e-004,-2.44030325986189e-009
1.68936219920179e+002	9.99956070853550e-004,-2.49657599294952e-009
1.72831843512153e+002	9.99956070853003e-004,-2.55414636000173e-009
1.76817299131726e+002	9.99956070852431e-004,-2.61304428410304e-009
1.80894658281185e+002	9.99956070851832e-004,-2.67330037835597e-009
1.85066040231103e+002	9.99956070851205e-004,-2.73494596179262e-009
1.89333613121855e+002	9.99956070850549e-004,-2.79801307565310e-009
1.93699595090551e+002	9.99956070849862e-004,-2.86253450003959e-009
1.98166255423942e+002	9.99956070849143e-004,-2.92854377095414e-009
2.02735915737920e+002	9.99956070848390e-004,-2.99607519772957e-009
2.07410951184210e+002	9.99956070847603e-004,-3.06516388086217e-009
2.12193791684895e+002	9.99956070846778e-004,-3.13584573025575e-009
2.17086923195407e+002	9.99956070458100e-004,-3.20815748029756e-009
2.22092888996634e+002	9.99956070457197e-004,-3.28213672322552e-009
2.27214291016839e+002	9.99956070456252e-004,-3.35782190737773e-009
2.32453791184044e+002	9.99956070455263e-004,-3.43525237128860e-009
2.37814112809615e+002	9.99956070454228e-004,-3.51446836062787e-009
2.43298042003741e+002	9.99956070453143e-004,-3.59551104911887e-009
2.48908429123558e+002	9.99956070452009e-004,-3.67842255993909e-009
2.54648190254671e+002	9.99956070450822e-004,-3.76324598761431e-009
2.60520308726827e+002	9.99956070449580e-004,-3.85002542041762e-009
2.66527836664555e+002	9.99956070448279e-004,-3.93880596328475e-009
2.72673896573548e+002	9.99956070446918e-004,-4.02963376125810e-009
2.78961682963638e+002	9.99956070445493e-004,-4.12255602347129e-009
2.85394464009191e+002	9.99956070444002e-004,-4.21762104768651e-009
2.91975583247790e+002	9.99956070442441e-004,-4.31487824539832e-009
2.98708461318093e+002	9.99956070440808e-004,-4.41437816751541e-009
3.05596597737760e+002	9.99956070439098e-004,-4.51617253063559e-009
3.12643572722382e+002	9.99956070437308e-004,-4.62031424392579e-009
3.19853049046357e+002	9.99956070047620e-004,-4.72685743133493e-009
3.27228773946669e+002	9.99956070045659e-004,-4.83585748075663e-009
3.34774581070574e+002	9.99956070043608e-004,-4.94737104144970e-009
3.42494392468201e+002	9.99956070041460e-004,-5.06145607427524e-009
3.50392220631091e+002	9.99956070039212e-004,-5.17817187665393e-009
3.58472170577761e+002	9.99956070036860e-004,-5.29757911338685e-009
3.66738441987342e+002	9.99956070034398e-004,-5.41973984818646e-009
3.75195331382433e+002	9.99956070031820e-004,-5.54471757593507e-009
3.83847234362282e+002	9.99956070029123e-004,-5.67257725568718e-009
3.92698647887470e+002	9.99956069638484e-004,-5.80338533794058e-009
4.01754172617274e+002	9.99956069635529e-004,-5.93720982499599e-009
4.11018515300929e+002	9.99956069632437e-004,-6.07412026778989e-009
4.20496491224037e+002	9.99956069629199e-004,-6.21418782757276e-009
4.30193026711386e+002	9.99956069625811e-004,-6.35748530655035e-009
4.40113161687482e+002	9.99956069622265e-004,-6.50408718572344e-009
4.50262052296127e+002	9.99956069618553e-004,-6.65406966360014e-009
4.60644973580410e+002	9.99956069226853e-004,-6.80751068818566e-009
4.71267322224483e+002	9.99956069222787e-004,-6.96449002778523e-009
4.82134619358582e+002	9.99956069218531e-004,-7.12508926728889e-009
4.93252513428712e+002	9.99956069214077e-004,-7.28939188052156e-009
5.04626783132516e+002	9.99956069209415e-004,-7.45748326618546e-009
5.16263340422846e+002	9.99956068816720e-004,-7.62945078371285e-009
5.28168233580588e+002	9.99956068811613e-004,-7.80538383261688e-009
5.40347650358352e+002	9.99956068806267e-004,-7.98537384832268e-009
5.52807921196649e+002	9.99956068800672e-004,-8.16951438327450e-009
5.65555522514243e+002	9.99956068407001e-004,-8.35790113783575e-009
5.78597080074360e+002	9.99956068400872e-004,-8.55063204723839e-009
5.91939372428539e+002	9.99956068394457e-004,-8.74780727701627e-009
6.05589334439886e+002	9.99956067999928e-004,-8.94952930182064e-009
6.19554060887574e+002	9.99956067992900e-004,-9.15590298936223e-009
6.33840810154470e+002	9.99956067985545e-004,-9.36703559552706e-009
6.48457007999789e+002	9.99956067590031e-004,-9.58303684877084e-009
6.63410251418746e+002	9.99956067581974e-004,-9.80401904000276e-009
6.78708312591213e+002	9.99956067573540e-004,-1.00300970173556e-008
6.94359142921431e+002	9.99956067176898e-004,-1.02613882765534e-008
7.10370877170875e+002	9.99956067167659e-004,-1.04980130571586e-008
7.26751837686421e+002	9.99956066770174e-004,-1.07400943249562e-008
7.43510538726017e+002	9.99956066760054e-004,-1.09877579287902e-008
7.60655690884097e+002	9.99956066361645e-004,-1.12411325709062e-008
7.78196205619051e+002	9.99956066350558e-004,-1.15003499711035e-008
7.96141199885091e+002	9.99956065951139e-004,-1.17655448356950e-008
8.14500000870932e+002	9.99956065938993e-004,-1.20368550293161e-008
8.33282150847739e+002	9.99956065538466e-004,-1.23144215424364e-008
8.52497412128872e+002	9.99956065137345e-004,-1.25983886570912e-008
8.72155772144002e+002	9.99956065123419e-004,-1.28889039833412e-008
8.92267448630227e+002	9.99956064721028e-004,-1.31861184918063e-008
9.12842894942904e+002	9.99956064705772e-004,-1.34901866927550e-008
9.33892805488941e+002	9.99956064689805e-004,-1.38012666151199e-008
9.55428121285379e+002	9.99956063897462e-004,-1.41195199150858e-008
9.77460035646155e+002	9.99956063492155e-004,-1.44451120551192e-008
1.00000000000000e+003	9.99956063473847e-004,-1.47782122668755e-008
1.02305972984251e+003	9.99956062679054e-004,-1.51189936336823e-008
1.04665121082543e+003	9.99956062271183e-004,-1.54676333303966e-008
1.07078670498640e+003	9.99956061862376e-004,-1.58243125501508e-008
1.09547875712234e+003	9.99956061452589e-004,-1.61892166811896e-008
1.12074020130978e+003	9.99956061041779e-004,-1.65625353866911e-008
1.14658416757563e+003	9.99956060629895e-004,-1.69444627033414e-008
1.17302408872162e+003	9.99956060216888e-004,-1.73351971421804e-008
1.20007370730629e+003	9.99956059802706e-004,-1.77349417917739e-008
1.22774708278787e+003	9.99956058999479e-004,-1.81439044034556e-008
1.25605859883189e+003	9.99956058582780e-004,-1.85622975800778e-008
1.28502297078731e+003	9.99956058164733e-004,-1.89903387660262e-008
1.31465525333509e+003	9.99956057357460e-004,-1.94282504183593e-008
1.34497084831303e+003	9.99956056936527e-004,-1.98762601890153e-008
1.37598551272118e+003	9.99956056126233e-004,-2.03346008914499e-008
1.40771536691173e+003	9.99956055314323e-004,-2.08035107742997e-008
1.44017690296787e+003	9.99956054500719e-004,-2.12832335577546e-008
1.47338699327573e+003	9.99956054073160e-004,-2.17740186063699e-008
1.50736289929413e+003	9.99956053255932e-004,-2.22761209616964e-008
1.54212228052647e+003	9.99956052436762e-004,-2.27898016193793e-008
1.57768320369953e+003	9.99956051227747e-004,-2.33153275429220e-008
1.61406415215390e+003	9.99956050404420e-004,-2.38529719299700e-008
1.65128403545105e+003	9.99956049578868e-004,-2.44030141995685e-008
1.68936219920180e+003	9.99956048363173e-004,-2.49657402120065e-008
1.72831843512154e+003	9.99956047532855e-004,-2.55414425029626e-008
1.76817299131727e+003	9.99956046699986e-004,-2.61304202698549e-008
1.80894658281186e+003	9.99956044701001e-004,-2.67329795474005e-008
1.85066040231103e+003	9.99956043862667e-004,-2.73494336963307e-008
1.89333613121855e+003	9.99956042633592e-004,-2.79801030025098e-008
1.93699595090551e+003	9.99956041401456e-004,-2.86253152887766e-008
1.98166255423943e+003	9.99956040166116e-004,-2.92854059064985e-008
2.02735915737920e+003	9.99956038539606e-004,-2.99607179062311e-008
2.07410951184210e+003	9.99956037297401e-004,-3.06516023492887e-008
2.12193791684896e+003	9.99956035663706e-004,-3.13584182562501e-008
2.17086923195407e+003	9.99956034026166e-004,-3.20815330290366e-008
2.22092888996635e+003	9.99956031996786e-004,-3.28213224701284e-008
2.27214291016839e+003	9.99956030351008e-004,-3.35781711575674e-008
2.32453791184045e+003	9.99956027925189e-004,-3.43524723499760e-008
2.37814112809616e+003	9.99956026658203e-004,-3.51446286803194e-008
2.43298042003742e+003	9.99956024222940e-004,-3.59550516366624e-008
2.48908429123559e+003	9.99956022170437e-004,-3.67841625899127e-008
2.54648190254672e+003	9.99956020500458e-004,-3.76323924697989e-008
2.60520308726828e+003	9.99956017661494e-004,-3.85001819699956e-008
2.66527836664556e+003	9.99956015204549e-004,-3.93879822862621e-008
2.72673896573549e+003	9.99956012353722e-004,-4.02962547592331e-008
2.78961682963639e+003	9.99956009884359e-004,-4.12254715452726e-008
2.85394464009192e+003	9.99956007020535e-004,-4.21761155048779e-008
2.91975583247791e+003	9.99956003761939e-004,-4.31486807221208e-008
2.98708461318094e+003	9.99956001271693e-004,-4.41436728212743e-008
3.05596597737761e+003	9.99955997610381e-004,-4.51616086906951e-008
3.12643572722383e+003	9.99955993941092e-004,-4.62030175327881e-008
3.19853049046358e+003	9.99955990263455e-004,-4.72684406034744e-008
3.27228773946670e+003	9.99955986577081e-004,-4.83584316380332e-008
3.34774581070575e+003	9.99955982493746e-004,-4.94735570837756e-008
3.42494392468202e+003	9.99955978788655e-004,-5.06143966139840e-008
3.50392220631093e+003	9.99955974297914e-004,-5.17815429850530e-008
3.58472170577762e+003	9.99955969796688e-004,-5.29756029044985e-008
3.66738441987343e+003	9.99955965284487e-004,-5.41971969544294e-008
3.75195331382434e+003	9.99955959985168e-004,-5.54469599008725e-008
3.83847234362283e+003	9.99955955061642e-004,-5.67255414533352e-008
3.92698647887472e+003	9.99955949737717e-004,-5.80336059888573e-008
4.01754172617275e+003	9.99955944012806e-004,-5.93718333255125e-008
4.11018515300930e+003	9.99955937886295e-004,-6.07409189543174e-008
4.20496491224038e+003	9.99955931745356e-004,-6.21415744698301e-008
4.30193026711388e+003	9.99955925201500e-004,-6.35745277344675e-008
4.40113161687483e+003	9.99955918641839e-004,-6.50405235311813e-008
4.50262052296129e+003	9.99955911290004e-004,-6.65403235947722e-008
4.60644973580411e+003	9.99955903920854e-004,-6.80747075145621e-008
4.71267322224485e+003	9.99955896145767e-004,-6.96444726289427e-008
4.82134619358584e+003	9.99955887963896e-004,-7.12504347309868e-008
4.93252513428714e+003	9.99955879374359e-004,-7.28934284199963e-008
5.04626783132518e+003	9.99955870376226e-004,-7.45743075345149e-008
5.16263340422848e+003	9.99955860968531e-004,-7.62939455953227e-008
5.28168233580590e+003	9.99955851150258e-004,-7.80532362590214e-008
5.40347650358354e+003	9.99955840920346e-004,-7.98530937817971e-008
5.52807921196651e+003	9.99955830277682e-004,-8.16944534938875e-008
5.65555522514245e+003	9.99955819221105e-004,-8.35782722849515e-008
5.78597080074362e+003	9.99955807749395e-004,-8.55055291004760e-008
5.91939372428541e+003	9.99955794697834e-004,-8.74772251565449e-008
6.05589334439888e+003	9.99955782391980e-004,-8.94943856264553e-008
6.19554060887576e+003	9.99955769279174e-004,-9.15580583286991e-008
6.33840810154473e+003	9.99955754582326e-004,-9.36693154131213e-008
6.48457007999792e+003	9.99955739851168e-004,-9.58292543682620e-008
6.63410251418748e+003	9.99955724308469e-004,-9.80389973470097e-008
6.78708312591215e+003	9.99955708340369e-004,-1.00299692684633e-007
6.94359142921434e+003	9.99955691169484e-004,-1.02612514843638e-007
7.10370877170878e+003	9.99955673569609e-004,-1.04978665804787e-007
7.26751837686424e+003	9.99955655151009e-004,-1.07399374903237e-007
7.43510538726020e+003	9.99955635523859e-004,-1.09875899793210e-007
7.60655690884100e+003	9.99955615461684e-004,-1.12409527476787e-007
7.78196205619054e+003	9.99955594186653e-004,-1.15001574113180e-007
7.96141199885094e+003	9.99955571696460e-004,-1.17653386432203e-007
8.14500000870935e+003	9.99955548764323e-004,-1.20366342460992e-007
8.33282150847742e+003	9.99955524224273e-004,-1.23141851304411e-007
8.52497412128875e+003	9.99955498849297e-004,-1.25981355206171e-007
8.72155772144005e+003	9.99955471861000e-004,-1.28886329077283e-007
8.92267448630230e+003	9.99955444032116e-004,-1.31858282374031e-007
9.12842894942908e+003	9.99955414971800e-004,-1.34898758890359e-007
9.33892805488945e+003	9.99955384289067e-004,-1.38009337967880e-007
9.55428121285382e+003	9.99955351980598e-004,-1.41191635471892e-007
9.77460035646159e+003	9.99955318430735e-004,-1.44447304643309e-007
1.00000000000001e+004	9.99955283635840e-004,-1.47778036642004e-007
1.02305972984252e+004	9.99955246816480e-004,-1.51185561234069e-007
1.04665121082544e+004	9.99955208356486e-004,-1.54671648511917e-007
1.07078670498640e+004	9.99955168251690e-004,-1.58238109158827e-007
1.09547875712234e+004	9.99955126109914e-004,-1.61886795365764e-007
1.12074020130979e+004	9.99955081926594e-004,-1.65619602136200e-007
1.14658416757563e+004	9.99955035696949e-004,-1.69438468096870e-007
1.17302408872162e+004	9.99954987415976e-004,-1.73345376498118e-007
1.20007370730630e+004	9.99954936690627e-004,-1.77342356037652e-007
1.22774708278788e+004	9.99954883903237e-004,-1.81431482495015e-007
1.25605859883190e+004	9.99954828660257e-004,-1.85614879015722e-007
1.28502297078732e+004	9.99954770567870e-004,-1.89894717584131e-007
1.31465525333509e+004	9.99954710007609e-004,-1.94273220576072e-007
1.34497084831303e+004	9.99954646585084e-004,-1.98752661063121e-007
1.37598551272118e+004	9.99954579905600e-004,-2.03335364388126e-007
1.40771536691174e+004	9.99954510349769e-004,-2.08023709825476e-007
1.44017690296787e+004	9.99954437522241e-004,-2.12820130905018e-007
1.47338699327573e+004	9.99954361415124e-004,-2.17727117340520e-007
1.50736289929414e+004	9.99954281632349e-004,-2.22747215837581e-007
1.54212228052648e+004	9.99954198165274e-004,-2.27883031881327e-007
1.57768320369953e+004	9.99954111004855e-004,-2.33137230843602e-007
1.61406415215391e+004	9.99954019365997e-004,-2.38512538814046e-007
1.65128403545105e+004	9.99953923626609e-004,-2.44011745301911e-007
1.68936219920180e+004	9.99953823776322e-004,-2.49637703640024e-007
1.72831843512154e+004	9.99953718640841e-004,-2.55393331843608e-007
1.76817299131727e+004	9.99953608984438e-004,-2.61281616341229e-007
1.80894658281187e+004	9.99953494407413e-004,-2.67305611275249e-007
1.85066040231104e+004	9.99953374121698e-004,-2.73468440572464e-007
1.89333613121856e+004	9.99953247726460e-004,-2.79773300126786e-007
1.93699595090552e+004	9.99953116371513e-004,-2.86223460424587e-007
1.98166255423944e+004	9.99952978879155e-004,-2.92822265080079e-007
2.02735915737921e+004	9.99952834458837e-004,-2.99573134661222e-007
2.07410951184211e+004	9.99952683482750e-004,-3.06479569149193e-007
2.12193791684897e+004	9.99952525546733e-004,-3.13545148077634e-007
2.17086923195408e+004	9.99952360245865e-004,-3.20773532987531e-007
2.22092888996636e+004	9.99952187174428e-004,-3.28168469281884e-007
2.27214291016840e+004	9.99952005925871e-004,-3.35733788118271e-007
2.32453791184046e+004	9.99951816092769e-004,-3.43473408347383e-007
2.37814112809617e+004	9.99951617654598e-004,-3.51391338879925e-007
2.43298042003743e+004	9.99951410202065e-004,-3.59491679948469e-007
2.48908429123560e+004	9.99951192549257e-004,-3.67778624716014e-007
2.54648190254673e+004	9.99950965060459e-004,-3.76256463810080e-007
2.60520308726829e+004	9.99950726935428e-004,-3.84929584652096e-007
2.66527836664557e+004	9.99950477760587e-004,-3.93802475271823e-007
2.72673896573550e+004	9.99950216733351e-004,-4.02879725696090e-007
2.78961682963640e+004	9.99949943825503e-004,-4.12166031571660e-007
2.85394464009193e+004	9.99949657844078e-004,-4.21666194249465e-007
2.91975583247792e+004	9.99949358758176e-004,-4.31385125903129e-007
2.98708461318095e+004	9.99949045759834e-004,-4.41327849660624e-007
3.05596597737762e+004	9.99948718039590e-004,-4.51499502989058e-007
3.12643572722385e+004	9.99948375174219e-004,-4.61905340742487e-007
3.19853049046360e+004	9.99948016351041e-004,-4.72550736752137e-007
3.27228773946671e+004	9.99947640755653e-004,-4.83441186944995e-007
3.34774581070577e+004	9.99947247571855e-004,-4.94582312035793e-007
3.42494392468203e+004	9.99946835981559e-004,-5.05979860265514e-007
3.50392220631094e+004	9.99946405552518e-004,-5.17639710783093e-007
3.58472170577764e+004	9.99945954686995e-004,-5.29567874191073e-007
3.66738441987345e+004	9.99945482948522e-004,-5.41770498887598e-007
3.75195331382435e+004	9.99944989122758e-004,-5.54253871133320e-007
3.83847234362285e+004	9.99944472380809e-004,-5.67024419829469e-007
3.92698647887473e+004	9.99943931503505e-004,-5.80088718371402e-007
4.01754172617277e+004	9.99943365269091e-004,-5.93453488362322e-007
4.11018515300932e+004	9.99942772840917e-004,-6.07125603483884e-007
4.20496491224040e+004	9.99942152991701e-004,-6.21112091426392e-007
4.30193026711389e+004	9.99941503715596e-004,-6.35420136398848e-007
4.40113161687485e+004	9.99940824554878e-004,-6.50057086694352e-007
4.50262052296131e+004	9.99940113885177e-004,-6.65030453219474e-007
4.60644973580413e+004	9.99939369690942e-004,-6.80347914244277e-007
4.71267322224487e+004	9.99938591116487e-004,-6.96017321957453e-007
4.82134619358586e+004	9.99937776139025e-004,-7.12046701536214e-007
4.93252513428716e+004	9.99936923507499e-004,-7.28444258597223e-007
5.04626783132520e+004	9.99936030803408e-004,-7.45218378905209e-007
5.16263340422851e+004	9.99935096379619e-004,-7.62377636115316e-007
5.28168233580593e+004	9.99934118584579e-004,-7.79930794020315e-007
5.40347650358356e+004	9.99933095374307e-004,-7.97886809521537e-007
5.52807921196654e+004	9.99932024312192e-004,-8.16254836442776e-007
5.65555522514248e+004	9.99930903732161e-004,-8.35044232192428e-007
5.78597080074365e+004	9.99929730799468e-004,-8.54264557204438e-007
5.91939372428544e+004	9.99928503061643e-004,-8.73925582590503e-007
6.05589334439890e+004	9.99927218448230e-004,-8.94037294348248e-007
6.19554060887579e+004	9.99925873719364e-004,-9.14609893526898e-007
6.33840810154475e+004	9.99924466792242e-004,-9.35653806353365e-007
6.48457007999794e+004	9.99922993638523e-004,-9.57179680238280e-007
6.63410251418751e+004	9.99921452549713e-004,-9.79198399485580e-007
6.78708312591218e+004	9.99919839483382e-004,-1.00172107685917e-006
6.94359142921437e+004	9.99918151552950e-004,-1.02475906747549e-006
7.10370877170881e+004	9.99916385088403e-004,-1.04832396764944e-006
7.26751837686427e+004	9.99914536411519e-004,-1.07242762138623e-006
7.43510538726023e+004	9.99912601447726e-004,-1.09708212351422e-006
7.60655690884103e+004	9.99910576889052e-004,-1.12229982768303e-006
7.78196205619057e+004	9.99908458254832e-004,-1.14809334459203e-006
7.96141199885098e+004	9.99906240666864e-004,-1.17447554854353e-006
8.14500000870939e+004	9.99903920400074e-004,-1.20145958701749e-006
8.33282150847746e+004	9.99901492167641e-004,-1.22905887581552e-006
8.52497412128879e+004	9.99898951059407e-004,-1.25728710976553e-006
8.72155772144009e+004	9.99896291765844e-004,-1.28615826424551e-006
