Freq.	V(vo)
1.00000000000000e+002	(-6.00003815720235e+001dB,-8.46766622482534e-005°)
1.02305972984251e+002	(-6.00003815720247e+001dB,-8.66292831932606e-005°)
1.04665121082543e+002	(-6.00003815720260e+001dB,-8.86269310490078e-005°)
1.07078670498640e+002	(-6.00003815720273e+001dB,-9.06706441238407e-005°)
1.09547875712233e+002	(-6.00003815720287e+001dB,-9.27614846692100e-005°)
1.12074020130978e+002	(-6.00003815720302e+001dB,-9.49005394317959e-005°)
1.14658416757562e+002	(-6.00003815720317e+001dB,-9.70889202183572e-005°)
1.17302408872161e+002	(-6.00003815720333e+001dB,-9.93277644736120e-005°)
1.20007370730629e+002	(-6.00003815720350e+001dB,-1.01618235871443e-004°)
1.22774708278787e+002	(-6.00003815720367e+001dB,-1.03961524919731e-004°)
1.25605859883189e+002	(-6.00003815720386e+001dB,-1.06358849579143e-004°)
1.28502297078731e+002	(-6.00003815720405e+001dB,-1.08811455896182e-004°)
1.31465525333508e+002	(-6.00003815720425e+001dB,-1.11320618650844e-004°)
1.34497084831302e+002	(-6.00003815720446e+001dB,-1.13887642019196e-004°)
1.37598551272117e+002	(-6.00003815720469e+001dB,-1.16513860251249e-004°)
1.40771536691173e+002	(-6.00003815720492e+001dB,-1.19200638364449e-004°)
1.44017690296786e+002	(-6.00003815720516e+001dB,-1.21949372853167e-004°)
1.47338699327572e+002	(-6.00003815720541e+001dB,-1.24761492414548e-004°)
1.50736289929412e+002	(-6.00003815720568e+001dB,-1.27638458691103e-004°)
1.54212228052647e+002	(-6.00003815720596e+001dB,-1.30581767030403e-004°)
1.57768320369952e+002	(-6.00003815720625e+001dB,-1.33592947262331e-004°)
1.61406415215389e+002	(-6.00003815720655e+001dB,-1.36673564494211e-004°)
1.65128403545104e+002	(-6.00003815720687e+001dB,-1.39825219924316e-004°)
1.68936219920179e+002	(-6.00003815720720e+001dB,-1.43049551674098e-004°)
1.72831843512153e+002	(-6.00003815720755e+001dB,-1.46348235639639e-004°)
1.76817299131726e+002	(-6.00003815720791e+001dB,-1.49722986362710e-004°)
1.80894658281185e+002	(-6.00003815720830e+001dB,-1.53175557921938e-004°)
1.85066040231103e+002	(-6.00003815720870e+001dB,-1.56707744844515e-004°)
1.89333613121855e+002	(-6.00003815720912e+001dB,-1.60321383038918e-004°)
1.93699595090551e+002	(-6.00003815720955e+001dB,-1.64018350749167e-004°)
1.98166255423942e+002	(-6.00003815721001e+001dB,-1.67800569531052e-004°)
2.02735915737920e+002	(-6.00003815721049e+001dB,-1.71670005250902e-004°)
2.07410951184210e+002	(-6.00003815721099e+001dB,-1.75628669107363e-004°)
2.12193791684895e+002	(-6.00003815721152e+001dB,-1.79678618676756e-004°)
2.17086923195407e+002	(-6.00003815754894e+001dB,-1.83821958848187e-004°)
2.22092888996634e+002	(-6.00003815754951e+001dB,-1.88060843451916e-004°)
2.27214291016839e+002	(-6.00003815755012e+001dB,-1.92397475581910e-004°)
2.32453791184044e+002	(-6.00003815755075e+001dB,-1.96834109269180e-004°)
2.37814112809615e+002	(-6.00003815755141e+001dB,-2.01373050522049e-004°)
2.43298042003741e+002	(-6.00003815755210e+001dB,-2.06016658524732e-004°)
2.48908429123558e+002	(-6.00003815755282e+001dB,-2.10767346863546e-004°)
2.54648190254671e+002	(-6.00003815755358e+001dB,-2.15627584781413e-004°)
2.60520308726827e+002	(-6.00003815755437e+001dB,-2.20599898461282e-004°)
2.66527836664555e+002	(-6.00003815755520e+001dB,-2.25686872339141e-004°)
2.72673896573548e+002	(-6.00003815755607e+001dB,-2.30891150447317e-004°)
2.78961682963638e+002	(-6.00003815755698e+001dB,-2.36215437788752e-004°)
2.85394464009191e+002	(-6.00003815755793e+001dB,-2.41662501742951e-004°)
2.91975583247790e+002	(-6.00003815755892e+001dB,-2.47235173504388e-004°)
2.98708461318093e+002	(-6.00003815755996e+001dB,-2.52936349554024e-004°)
3.05596597737760e+002	(-6.00003815756105e+001dB,-2.58768993164821e-004°)
3.12643572722382e+002	(-6.00003815756220e+001dB,-2.64736135941923e-004°)
3.19853049046357e+002	(-6.00003815790026e+001dB,-2.70840879200450e-004°)
3.27228773946669e+002	(-6.00003815790151e+001dB,-2.77086396364703e-004°)
3.34774581070574e+002	(-6.00003815790282e+001dB,-2.83475933443392e-004°)
3.42494392468201e+002	(-6.00003815790419e+001dB,-2.90012811495134e-004°)
3.50392220631091e+002	(-6.00003815790562e+001dB,-2.96700428161130e-004°)
3.58472170577761e+002	(-6.00003815790712e+001dB,-3.03542259431152e-004°)
3.66738441987342e+002	(-6.00003815790869e+001dB,-3.10541861450209e-004°)
3.75195331382433e+002	(-6.00003815791033e+001dB,-3.17702872366906e-004°)
3.83847234362282e+002	(-6.00003815791205e+001dB,-3.25029014224421e-004°)
3.92698647887470e+002	(-6.00003815825072e+001dB,-3.32524094652056e-004°)
4.01754172617274e+002	(-6.00003815825260e+001dB,-3.40192009810860e-004°)
4.11018515300929e+002	(-6.00003815825458e+001dB,-3.48036744977086e-004°)
4.20496491224037e+002	(-6.00003815825664e+001dB,-3.56062377569180e-004°)
4.30193026711386e+002	(-6.00003815825880e+001dB,-3.64273079029531e-004°)
4.40113161687482e+002	(-6.00003815826106e+001dB,-3.72673116992620e-004°)
4.50262052296127e+002	(-6.00003815826343e+001dB,-3.81266857503179e-004°)
4.60644973580410e+002	(-6.00003815860277e+001dB,-3.90058767000418e-004°)
4.71267322224483e+002	(-6.00003815860537e+001dB,-3.99053415773295e-004°)
4.82134619358582e+002	(-6.00003815860808e+001dB,-4.08255478644921e-004°)
4.93252513428712e+002	(-6.00003815861092e+001dB,-4.17669738523287e-004°)
5.04626783132516e+002	(-6.00003815861389e+001dB,-4.27301088608582e-004°)
5.16263340422846e+002	(-6.00003815895387e+001dB,-4.37154534617024e-004°)
5.28168233580588e+002	(-6.00003815895713e+001dB,-4.47235198653277e-004°)
5.40347650358352e+002	(-6.00003815896054e+001dB,-4.57548319977191e-004°)
5.52807921196649e+002	(-6.00003815896411e+001dB,-4.68099258984488e-004°)
5.65555522514243e+002	(-6.00003815930471e+001dB,-4.78893499328728e-004°)
5.78597080074360e+002	(-6.00003815930862e+001dB,-4.89936652164727e-004°)
5.91939372428539e+002	(-6.00003815931271e+001dB,-5.01234456988524e-004°)
6.05589334439886e+002	(-6.00003815965386e+001dB,-5.12792785621989e-004°)
6.19554060887574e+002	(-6.00003815965834e+001dB,-5.24617646413176e-004°)
6.33840810154470e+002	(-6.00003815966303e+001dB,-5.36715185136086e-004°)
6.48457007999789e+002	(-6.00003816000480e+001dB,-5.49091689257311e-004°)
6.63410251418746e+002	(-6.00003816000994e+001dB,-5.61753592433711e-004°)
6.78708312591213e+002	(-6.00003816001532e+001dB,-5.74707475475859e-004°)
6.94359142921431e+002	(-6.00003816035781e+001dB,-5.87960070916678e-004°)
7.10370877170875e+002	(-6.00003816036371e+001dB,-6.01518267827530e-004°)
7.26751837686421e+002	(-6.00003816070674e+001dB,-6.15389112400043e-004°)
7.43510538726017e+002	(-6.00003816071319e+001dB,-6.29579815086831e-004°)
7.60655690884097e+002	(-6.00003816105682e+001dB,-6.44097750790490e-004°)
7.78196205619051e+002	(-6.00003816106389e+001dB,-6.58950466337367e-004°)
7.96141199885091e+002	(-6.00003816140815e+001dB,-6.74145680675431e-004°)
8.14500000870932e+002	(-6.00003816141590e+001dB,-6.89691292696650e-004°)
8.33282150847739e+002	(-6.00003816176087e+001dB,-7.05595381444065e-004°)
8.52497412128872e+002	(-6.00003816210622e+001dB,-7.21866213771582e-004°)
8.72155772144002e+002	(-6.00003816211510e+001dB,-7.38512247198346e-004°)
8.92267448630227e+002	(-6.00003816246127e+001dB,-7.55542132650495e-004°)
9.12842894942904e+002	(-6.00003816247099e+001dB,-7.72964722724036e-004°)
9.33892805488941e+002	(-6.00003816248118e+001dB,-7.90789072494161e-004°)
9.55428121285379e+002	(-6.00003816316557e+001dB,-8.09024445212548e-004°)
9.77460035646155e+002	(-6.00003816351359e+001dB,-8.27680320677209e-004°)
1.00000000000000e+003	(-6.00003816352526e+001dB,-8.46766395552664e-004°)
1.02305972984251e+003	(-6.00003816421122e+001dB,-8.66292588204626e-004°)
1.04665121082543e+003	(-6.00003816456087e+001dB,-8.86269049466077e-004°)
1.07078670498640e+003	(-6.00003816491113e+001dB,-9.06706161723974e-004°)
1.09547875712234e+003	(-6.00003816526200e+001dB,-9.27614547409678e-004°)
1.12074020130978e+003	(-6.00003816561353e+001dB,-9.49005073900992e-004°)
1.14658416757563e+003	(-6.00003816596575e+001dB,-9.70888859170287e-004°)
1.17302408872162e+003	(-6.00003816631868e+001dB,-9.93277277562829e-004°)
1.20007370730629e+003	(-6.00003816667236e+001dB,-1.01618196570834e-003°)
1.22774708278787e+003	(-6.00003816736369e+001dB,-1.03961482780844e-003°)
1.25605859883189e+003	(-6.00003816771898e+001dB,-1.06358804484823e-003°)
1.28502297078731e+003	(-6.00003816807512e+001dB,-1.08811407641566e-003°)
1.31465525333509e+003	(-6.00003816876904e+001dB,-1.11320566935400e-003°)
1.34497084831303e+003	(-6.00003816912702e+001dB,-1.13887586687900e-003°)
1.37598551272118e+003	(-6.00003816982286e+001dB,-1.16513800968006e-003°)
1.40771536691173e+003	(-6.00003817051973e+001dB,-1.19200574856829e-003°)
1.44017690296787e+003	(-6.00003817121768e+001dB,-1.21949304829727e-003°)
1.47338699327573e+003	(-6.00003817157989e+001dB,-1.24761419654935e-003°)
1.50736289929413e+003	(-6.00003817228015e+001dB,-1.27638380772950e-003°)
1.54212228052647e+003	(-6.00003817298165e+001dB,-1.30581683597274e-003°)
1.57768320369953e+003	(-6.00003817402131e+001dB,-1.33592857835331e-003°)
1.61406415215390e+003	(-6.00003817472546e+001dB,-1.36673468760887e-003°)
1.65128403545105e+003	(-6.00003817543103e+001dB,-1.39825117448349e-003°)
1.68936219920180e+003	(-6.00003817647495e+001dB,-1.43049441884198e-003°)
1.72831843512154e+003	(-6.00003817718355e+001dB,-1.46348118138610e-003°)
1.76817299131727e+003	(-6.00003817789379e+001dB,-1.49722860616311e-003°)
1.80894658281186e+003	(-6.00003817961633e+001dB,-1.53175423022588e-003°)
1.85066040231103e+003	(-6.00003818033004e+001dB,-1.56707600508998e-003°)
1.89333613121855e+003	(-6.00003818138250e+001dB,-1.60321228495658e-003°)
1.93699595090551e+003	(-6.00003818243690e+001dB,-1.64018185292581e-003°)
1.98166255423943e+003	(-6.00003818349335e+001dB,-1.67800392406389e-003°)
2.02735915737920e+003	(-6.00003818488880e+001dB,-1.71669815525335e-003°)
2.07410951184210e+003	(-6.00003818594963e+001dB,-1.75628466039768e-003°)
2.12193791684896e+003	(-6.00003818734966e+001dB,-1.79678401211669e-003°)
2.17086923195407e+003	(-6.00003818875215e+001dB,-1.83821726125468e-003°)
2.22092888996635e+003	(-6.00003819049407e+001dB,-1.88060594138901e-003°)
2.27214291016839e+003	(-6.00003819190181e+001dB,-1.92397208675073e-003°)
2.32453791184045e+003	(-6.00003819398609e+001dB,-1.96833823263519e-003°)
2.37814112809616e+003	(-6.00003819506272e+001dB,-2.01372744543285e-003°)
2.43298042003742e+003	(-6.00003819715303e+001dB,-2.06016330735020e-003°)
2.48908429123559e+003	(-6.00003819890970e+001dB,-2.10766995912459e-003°)
2.54648190254672e+003	(-6.00003820033287e+001dB,-2.15627209224892e-003°)
2.60520308726828e+003	(-6.00003820277018e+001dB,-2.20599496109354e-003°)
2.66527836664556e+003	(-6.00003820487431e+001dB,-2.25686441509136e-003°)
2.72673896573549e+003	(-6.00003820731918e+001dB,-2.30890689001780e-003°)
2.78961682963639e+003	(-6.00003820943124e+001dB,-2.36214943786948e-003°)
2.85394464009192e+003	(-6.00003821188440e+001dB,-2.41661972755485e-003°)
2.91975583247791e+003	(-6.00003821467886e+001dB,-2.47234606932684e-003°)
2.98708461318094e+003	(-6.00003821680423e+001dB,-2.52935743173278e-003°)
3.05596597737761e+003	(-6.00003821994506e+001dB,-2.58768343649362e-003°)
3.12643572722383e+003	(-6.00003822309098e+001dB,-2.64735440314765e-003°)
3.19853049046358e+003	(-6.00003822624222e+001dB,-2.70840134475632e-003°)
3.27228773946670e+003	(-6.00003822939904e+001dB,-2.77085598942772e-003°)
3.34774581070575e+003	(-6.00003823289855e+001dB,-2.83475079474782e-003°)
3.42494392468202e+003	(-6.00003823606730e+001dB,-2.90011897285612e-003°)
3.50392220631093e+003	(-6.00003823991617e+001dB,-2.96699449108240e-003°)
3.58472170577762e+003	(-6.00003824377173e+001dB,-3.03541211056144e-003°)
3.66738441987343e+003	(-6.00003824763428e+001dB,-3.10540738961836e-003°)
3.75195331382434e+003	(-6.00003825217790e+001dB,-3.17701670175786e-003°)
3.83847234362283e+003	(-6.00003825639232e+001dB,-3.25027727064615e-003°)
3.92698647887472e+003	(-6.00003826095162e+001dB,-3.32522716648232e-003°)
4.01754172617275e+003	(-6.00003826585620e+001dB,-3.40190534180678e-003°)
4.11018515300930e+003	(-6.00003827110643e+001dB,-3.48035164719819e-003°)
4.20496491224038e+003	(-6.00003827636586e+001dB,-3.56060685456534e-003°)
4.30193026711388e+003	(-6.00003828197179e+001dB,-3.64271267064151e-003°)
4.40113161687483e+003	(-6.00003828758779e+001dB,-3.72671176891903e-003°)
4.50262052296129e+003	(-6.00003829388809e+001dB,-3.81264779851110e-003°)
4.60644973580411e+003	(-6.00003830019942e+001dB,-3.90056542578809e-003°)
4.71267322224485e+003	(-6.00003830685917e+001dB,-3.99051033848700e-003°)
4.82134619358584e+003	(-6.00003831386789e+001dB,-4.08252928032810e-003°)
4.93252513428714e+003	(-6.00003832122614e+001dB,-4.17667007260362e-003°)
5.04626783132518e+003	(-6.00003832893450e+001dB,-4.27298163898898e-003°)
5.16263340422848e+003	(-6.00003833699360e+001dB,-4.37151403092586e-003°)
5.28168233580590e+003	(-6.00003834540408e+001dB,-4.47231845361217e-003°)
5.40347650358354e+003	(-6.00003835416662e+001dB,-4.57544729257521e-003°)
5.52807921196651e+003	(-6.00003836328193e+001dB,-4.68095414085812e-003°)
5.65555522514245e+003	(-6.00003837275075e+001dB,-4.78889382683110e-003°)
5.78597080074362e+003	(-6.00003838257385e+001dB,-4.89932244263500e-003°)
5.91939372428541e+003	(-6.00003839376266e+001dB,-5.01229736231940e-003°)
6.05589334439888e+003	(-6.00003840429681e+001dB,-5.12787731529050e-003°)
6.19554060887576e+003	(-6.00003841552467e+001dB,-5.24612234776021e-003°)
6.33840810154473e+003	(-6.00003842812090e+001dB,-5.36709389666516e-003°)
6.48457007999792e+003	(-6.00003844073902e+001dB,-5.49085483843068e-003°)
6.63410251418748e+003	(-6.00003845405376e+001dB,-5.61746947502509e-003°)
6.78708312591215e+003	(-6.00003846772935e+001dB,-5.74700360234359e-003°)
6.94359142921434e+003	(-6.00003848244061e+001dB,-5.87952451998272e-003°)
7.10370877170878e+003	(-6.00003849751501e+001dB,-6.01510109539112e-003°)
7.26751837686424e+003	(-6.00003851329062e+001dB,-6.15380377013598e-003°)
7.43510538726020e+003	(-6.00003853010559e+001dB,-6.29570460865363e-003°)
7.60655690884100e+003	(-6.00003854728754e+001dB,-6.44087734971731e-003°)
7.78196205619054e+003	(-6.00003856551159e+001dB,-6.58939741254740e-003°)
7.96141199885094e+003	(-6.00003858477923e+001dB,-6.74134196326731e-003°)
8.14500000870935e+003	(-6.00003860441825e+001dB,-6.89678995596840e-003°)
8.33282150847742e+003	(-6.00003862544086e+001dB,-7.05582213866708e-003°)
8.52497412128875e+003	(-6.00003864717503e+001dB,-7.21852114495858e-003°)
8.72155772144005e+003	(-6.00003867029623e+001dB,-7.38497149120556e-003°)
8.92267448630230e+003	(-6.00003869413260e+001dB,-7.55525966199437e-003°)
9.12842894942908e+003	(-6.00003871902292e+001dB,-7.72947411790372e-003°)
9.33892805488945e+003	(-6.00003874530608e+001dB,-7.90770535664330e-003°)
9.55428121285382e+003	(-6.00003877298421e+001dB,-8.09004596585729e-003°)
9.77460035646159e+003	(-6.00003880172264e+001dB,-8.27659067159512e-003°)
1.00000000000001e+004	(-6.00003883152371e+001dB,-8.46743637564392e-003°)
1.02305972984252e+004	(-6.00003886306356e+001dB,-8.66268219863089e-003°)
1.04665121082544e+004	(-6.00003889600788e+001dB,-8.86242956217329e-003°)
1.07078670498640e+004	(-6.00003893035931e+001dB,-9.06678221695086e-003°)
1.09547875712234e+004	(-6.00003896645752e+001dB,-9.27584629562805e-003°)
1.12074020130979e+004	(-6.00003900430541e+001dB,-9.48973038067479e-003°)
1.14658416757563e+004	(-6.00003904390602e+001dB,-9.70854555418419e-003°)
1.17302408872162e+004	(-6.00003908526256e+001dB,-9.93240545519400e-003°)
1.20007370730630e+004	(-6.00003912871522e+001dB,-1.01614263308308e-002°)
1.22774708278788e+004	(-6.00003917393063e+001dB,-1.03957271183248e-002°)
1.25605859883190e+004	(-6.00003922124932e+001dB,-1.06354294768846e-002°)
1.28502297078732e+004	(-6.00003927101197e+001dB,-1.08806578645844e-002°)
1.31465525333509e+004	(-6.00003932288574e+001dB,-1.11315396187188e-002°)
1.34497084831303e+004	(-6.00003937721168e+001dB,-1.13882049899356e-002°)
1.37598551272118e+004	(-6.00003943433105e+001dB,-1.16507872244743e-002°)
1.40771536691174e+004	(-6.00003949391156e+001dB,-1.19194226500802e-002°)
1.44017690296787e+004	(-6.00003955629491e+001dB,-1.21942507124454e-002°)
1.47338699327573e+004	(-6.00003962148611e+001dB,-1.24754140722637e-002°)
1.50736289929414e+004	(-6.00003968982730e+001dB,-1.27630586608962e-002°)
1.54212228052648e+004	(-6.00003976132399e+001dB,-1.30573337732529e-002°)
1.57768320369953e+004	(-6.00003983598195e+001dB,-1.33583921358636e-002°)
1.61406415215391e+004	(-6.00003991448095e+001dB,-1.36663899651060e-002°)
1.65128403545105e+004	(-6.00003999649044e+001dB,-1.39814870961339e-002°)
1.68936219920180e+004	(-6.00004008201704e+001dB,-1.43038470264033e-002°)
1.72831843512154e+004	(-6.00004017207826e+001dB,-1.46336369768535e-002°)
1.76817299131727e+004	(-6.00004026600762e+001dB,-1.49710280612077e-002°)
1.80894658281187e+004	(-6.00004036414956e+001dB,-1.53161952901652e-002°)
1.85066040231104e+004	(-6.00004046718576e+001dB,-1.56693176798974e-002°)
1.89333613121856e+004	(-6.00004057546138e+001dB,-1.60305783654226e-002°)
1.93699595090552e+004	(-6.00004068797451e+001dB,-1.64001647313130e-002°)
1.98166255423944e+004	(-6.00004080574485e+001dB,-1.67782683899624e-002°)
2.02735915737921e+004	(-6.00004092945566e+001dB,-1.71650853586200e-002°)
2.07410951184211e+004	(-6.00004105878002e+001dB,-1.75608161860451e-002°)
2.12193791684897e+004	(-6.00004119406524e+001dB,-1.79656659930573e-002°)
2.17086923195408e+004	(-6.00004133565909e+001dB,-1.83798446005317e-002°)
2.22092888996636e+004	(-6.00004148390986e+001dB,-1.88035666357261e-002°)
2.27214291016840e+004	(-6.00004163916637e+001dB,-1.92370516407821e-002°)
2.32453791184046e+004	(-6.00004180177800e+001dB,-1.96805241838629e-002°)
2.37814112809617e+004	(-6.00004197175783e+001dB,-2.01342139870299e-002°)
2.43298042003743e+004	(-6.00004214945645e+001dB,-2.05983560136906e-002°)
2.48908429123560e+004	(-6.00004233589878e+001dB,-2.10731905698900e-002°)
2.54648190254673e+004	(-6.00004253076296e+001dB,-2.15589635158974e-002°)
2.60520308726829e+004	(-6.00004273473844e+001dB,-2.20559262839672e-002°)
2.66527836664557e+004	(-6.00004294817851e+001dB,-2.25643360648468e-002°)
2.72673896573550e+004	(-6.00004317177412e+001dB,-2.30844559043739e-002°)
2.78961682963640e+004	(-6.00004340554326e+001dB,-2.36165548847040e-002°)
2.85394464009193e+004	(-6.00004365051537e+001dB,-2.41609081740167e-002°)
2.91975583247792e+004	(-6.00004390671017e+001dB,-2.47177972655693e-002°)
2.98708461318095e+004	(-6.00004417482201e+001dB,-2.52875100311619e-002°)
3.05596597737762e+004	(-6.00004445554623e+001dB,-2.58703408973297e-002°)
3.12643572722385e+004	(-6.00004474924229e+001dB,-2.64665910098761e-002°)
3.19853049046360e+004	(-6.00004505660756e+001dB,-2.70765683449771e-002°)
3.27228773946671e+004	(-6.00004537834053e+001dB,-2.77005878784618e-002°)
3.34774581070577e+004	(-6.00004571514081e+001dB,-2.83389717402409e-002°)
3.42494392468203e+004	(-6.00004606770925e+001dB,-2.89920493714100e-002°)
3.50392220631094e+004	(-6.00004643641106e+001dB,-2.96601577067115e-002°)
3.58472170577764e+004	(-6.00004682262338e+001dB,-3.03436412517544e-002°)
3.66738441987345e+004	(-6.00004722671413e+001dB,-3.10428523783885e-002°)
3.75195331382435e+004	(-6.00004764972640e+001dB,-3.17581513863091e-002°)
3.83847234362285e+004	(-6.00004809236792e+001dB,-3.24899067420430e-002°)
3.92698647887473e+004	(-6.00004855568488e+001dB,-3.32384952097943e-002°)
4.01754172617277e+004	(-6.00004904072510e+001dB,-3.40043020527898e-002°)
4.11018515300932e+004	(-6.00004954820126e+001dB,-3.47877212419044e-002°)
4.20496491224040e+004	(-6.00005007916474e+001dB,-3.55891555926598e-002°)
4.30193026711389e+004	(-6.00005063534251e+001dB,-3.64090169250508e-002°)
4.40113161687485e+004	(-6.00005121711607e+001dB,-3.72477264139937e-002°)
4.50262052296131e+004	(-6.00005182587958e+001dB,-3.81057146023981e-002°)
4.60644973580413e+004	(-6.00005246336622e+001dB,-3.89834216484694e-002°)
4.71267322224487e+004	(-6.00005313030085e+001dB,-3.98812976416933e-002°)
4.82134619358586e+004	(-6.00005382842129e+001dB,-4.07998026397460e-002°)
4.93252513428716e+004	(-6.00005455879409e+001dB,-4.17394070203449e-002°)
