Freq.	V(vout)
1.00000000000000e+000	(-5.64321987955634e+001dB,-9.01728141394642e+001°)
1.02305972984251e+000	(-5.62341799148518e+001dB,-9.01767991805850e+001°)
1.04665121082543e+000	(-5.60361610771185e+001dB,-9.01808761152352e+001°)
1.07078670498640e+000	(-5.58381422843684e+001dB,-9.01850470624235e+001°)
1.09547875712233e+000	(-5.56401235386999e+001dB,-9.01893141900199e+001°)
1.12074020130978e+000	(-5.54421048423095e+001dB,-9.01936797158829e+001°)
1.14658416757562e+000	(-5.52440861974961e+001dB,-9.01981459090115e+001°)
1.17302408872161e+000	(-5.50460676066657e+001dB,-9.02027150907245e+001°)
1.20007370730629e+000	(-5.48480490723367e+001dB,-9.02073896358667e+001°)
1.22774708278787e+000	(-5.46500305971450e+001dB,-9.02121719740431e+001°)
1.25605859883189e+000	(-5.44520121838494e+001dB,-9.02170645908814e+001°)
1.28502297078731e+000	(-5.42539938353374e+001dB,-9.02220700293238e+001°)
1.31465525333508e+000	(-5.40559755546311e+001dB,-9.02271908909479e+001°)
1.34497084831302e+000	(-5.38579573448939e+001dB,-9.02324298373191e+001°)
1.37598551272117e+000	(-5.36599392094364e+001dB,-9.02377895913734e+001°)
1.40771536691173e+000	(-5.34619211517238e+001dB,-9.02432729388321e+001°)
1.44017690296786e+000	(-5.32639031753831e+001dB,-9.02488827296496e+001°)
1.47338699327572e+000	(-5.30658852842103e+001dB,-9.02546218794941e+001°)
1.50736289929412e+000	(-5.28678674821784e+001dB,-9.02604933712623e+001°)
1.54212228052647e+000	(-5.26698497734462e+001dB,-9.02665002566298e+001°)
1.57768320369952e+000	(-5.24718321623659e+001dB,-9.02726456576363e+001°)
1.61406415215389e+000	(-5.22738146534931e+001dB,-9.02789327683077e+001°)
1.65128403545104e+000	(-5.20757972515960e+001dB,-9.02853648563159e+001°)
1.68936219920179e+000	(-5.18777799616649e+001dB,-9.02919452646761e+001°)
1.72831843512153e+000	(-5.16797627889232e+001dB,-9.02986774134839e+001°)
1.76817299131726e+000	(-5.14817457388377e+001dB,-9.03055648016921e+001°)
1.80894658281185e+000	(-5.12837288171306e+001dB,-9.03126110089283e+001°)
1.85066040231103e+000	(-5.10857120297907e+001dB,-9.03198196973548e+001°)
1.89333613121855e+000	(-5.08876953830863e+001dB,-9.03271946135710e+001°)
1.93699595090551e+000	(-5.06896788835781e+001dB,-9.03347395905593e+001°)
1.98166255423942e+000	(-5.04916625381328e+001dB,-9.03424585496768e+001°)
2.02735915737920e+000	(-5.02936463539376e+001dB,-9.03503555026920e+001°)
2.07410951184210e+000	(-5.00956303385149e+001dB,-9.03584345538685e+001°)
2.12193791684895e+000	(-4.98976144997379e+001dB,-9.03666999020971e+001°)
2.17086923195407e+000	(-4.96995988458472e+001dB,-9.03751558430765e+001°)
2.22092888996634e+000	(-4.95015833854677e+001dB,-9.03838067715448e+001°)
2.27214291016839e+000	(-4.93035681276269e+001dB,-9.03926571835617e+001°)
2.32453791184044e+000	(-4.91055530817731e+001dB,-9.04017116788437e+001°)
2.37814112809615e+000	(-4.89075382577956e+001dB,-9.04109749631527e+001°)
2.43298042003741e+000	(-4.87095236660448e+001dB,-9.04204518507401e+001°)
2.48908429123558e+000	(-4.85115093173543e+001dB,-9.04301472668464e+001°)
2.54648190254671e+000	(-4.83134952230627e+001dB,-9.04400662502594e+001°)
2.60520308726827e+000	(-4.81154813950376e+001dB,-9.04502139559297e+001°)
2.66527836664555e+000	(-4.79174678457003e+001dB,-9.04605956576481e+001°)
2.72673896573548e+000	(-4.77194545880517e+001dB,-9.04712167507833e+001°)
2.78961682963638e+000	(-4.75214416356987e+001dB,-9.04820827550830e+001°)
2.85394464009191e+000	(-4.73234290028833e+001dB,-9.04931993175399e+001°)
2.91975583247790e+000	(-4.71254167045119e+001dB,-9.05045722153227e+001°)
2.98708461318093e+000	(-4.69274047561859e+001dB,-9.05162073587751e+001°)
3.05596597737760e+000	(-4.67293931742348e+001dB,-9.05281107944838e+001°)
3.12643572722382e+000	(-4.65313819757497e+001dB,-9.05402887084163e+001°)
3.19853049046357e+000	(-4.63333711786189e+001dB,-9.05527474291320e+001°)
3.27228773946669e+000	(-4.61353608015653e+001dB,-9.05654934310661e+001°)
3.34774581070574e+000	(-4.59373508641850e+001dB,-9.05785333378891e+001°)
3.42494392468201e+000	(-4.57393413869882e+001dB,-9.05918739259440e+001°)
3.50392220631091e+000	(-4.55413323914418e+001dB,-9.06055221277618e+001°)
3.58472170577761e+000	(-4.53433239000144e+001dB,-9.06194850356581e+001°)
3.66738441987342e+000	(-4.51453159362222e+001dB,-9.06337699054126e+001°)
3.75195331382433e+000	(-4.49473085246785e+001dB,-9.06483841600319e+001°)
3.83847234362282e+000	(-4.47493016911447e+001dB,-9.06633353935999e+001°)
3.92698647887470e+000	(-4.45512954625840e+001dB,-9.06786313752161e+001°)
4.01754172617274e+000	(-4.43532898672169e+001dB,-9.06942800530239e+001°)
4.11018515300929e+000	(-4.41552849345808e+001dB,-9.07102895583319e+001°)
4.20496491224037e+000	(-4.39572806955902e+001dB,-9.07266682098287e+001°)
4.30193026711386e+000	(-4.37592771826022e+001dB,-9.07434245178961e+001°)
4.40113161687482e+000	(-4.35612744294826e+001dB,-9.07605671890188e+001°)
4.50262052296127e+000	(-4.33632724716773e+001dB,-9.07781051302971e+001°)
4.60644973580409e+000	(-4.31652713462850e+001dB,-9.07960474540617e+001°)
4.71267322224483e+000	(-4.29672710921352e+001dB,-9.08144034825949e+001°)
4.82134619358582e+000	(-4.27692717498683e+001dB,-9.08331827529596e+001°)
4.93252513428712e+000	(-4.25712733620202e+001dB,-9.08523950219382e+001°)
5.04626783132516e+000	(-4.23732759731108e+001dB,-9.08720502710855e+001°)
5.16263340422846e+000	(-4.21752796297364e+001dB,-9.08921587118964e+001°)
5.28168233580588e+000	(-4.19772843806664e+001dB,-9.09127307910917e+001°)
5.40347650358351e+000	(-4.17792902769453e+001dB,-9.09337771960250e+001°)
5.52807921196649e+000	(-4.15812973719976e+001dB,-9.09553088602126e+001°)
5.65555522514243e+000	(-4.13833057217399e+001dB,-9.09773369689901e+001°)
5.78597080074360e+000	(-4.11853153846965e+001dB,-9.09998729652971e+001°)
5.91939372428539e+000	(-4.09873264221211e+001dB,-9.10229285555953e+001°)
6.05589334439885e+000	(-4.07893388981241e+001dB,-9.10465157159197e+001°)
6.19554060887574e+000	(-4.05913528798057e+001dB,-9.10706466980686e+001°)
6.33840810154470e+000	(-4.03933684373953e+001dB,-9.10953340359347e+001°)
6.48457007999789e+000	(-4.01953856443976e+001dB,-9.11205905519793e+001°)
6.63410251418746e+000	(-3.99974045777451e+001dB,-9.11464293638542e+001°)
6.78708312591213e+000	(-3.97994253179575e+001dB,-9.11728638911738e+001°)
6.94359142921431e+000	(-3.96014479493097e+001dB,-9.11999078624416e+001°)
7.10370877170875e+000	(-3.94034725600065e+001dB,-9.12275753221323e+001°)
7.26751837686421e+000	(-3.92054992423653e+001dB,-9.12558806379359e+001°)
7.43510538726017e+000	(-3.90075280930085e+001dB,-9.12848385081649e+001°)
7.60655690884097e+000	(-3.88095592130638e+001dB,-9.13144639693295e+001°)
7.78196205619051e+000	(-3.86115927083742e+001dB,-9.13447724038841e+001°)
7.96141199885091e+000	(-3.84136286897177e+001dB,-9.13757795481480e+001°)
8.14500000870932e+000	(-3.82156672730373e+001dB,-9.14075015004057e+001°)
8.33282150847739e+000	(-3.80177085796818e+001dB,-9.14399547291891e+001°)
8.52497412128872e+000	(-3.78197527366574e+001dB,-9.14731560817466e+001°)
8.72155772144001e+000	(-3.76217998768917e+001dB,-9.15071227927021e+001°)
8.92267448630226e+000	(-3.74238501395091e+001dB,-9.15418724929088e+001°)
9.12842894942904e+000	(-3.72259036701199e+001dB,-9.15774232185019e+001°)
9.33892805488941e+000	(-3.70279606211222e+001dB,-9.16137934201528e+001°)
9.55428121285378e+000	(-3.68300211520181e+001dB,-9.16510019725321e+001°)
9.77460035646155e+000	(-3.66320854297446e+001dB,-9.16890681839824e+001°)
1.00000000000000e+001	(-3.64341536290202e+001dB,-9.17280118064078e+001°)
1.02305972984251e+001	(-3.62362259327065e+001dB,-9.17678530453829e+001°)
1.04665121082543e+001	(-3.60383025321884e+001dB,-9.18086125704872e+001°)
1.07078670498640e+001	(-3.58403836277700e+001dB,-9.18503115258678e+001°)
1.09547875712234e+001	(-3.56424694290904e+001dB,-9.18929715410373e+001°)
1.12074020130978e+001	(-3.54445601555585e+001dB,-9.19366147419093e+001°)
1.14658416757563e+001	(-3.52466560368071e+001dB,-9.19812637620775e+001°)
1.17302408872162e+001	(-3.50487573131693e+001dB,-9.20269417543441e+001°)
1.20007370730629e+001	(-3.48508642361762e+001dB,-9.20736724024993e+001°)
1.22774708278787e+001	(-3.46529770690782e+001dB,-9.21214799333613e+001°)
1.25605859883189e+001	(-3.44550960873903e+001dB,-9.21703891290774e+001°)
1.28502297078731e+001	(-3.42572215794623e+001dB,-9.22204253396941e+001°)
1.31465525333509e+001	(-3.40593538470765e+001dB,-9.22716144960007e+001°)
1.34497084831303e+001	(-3.38614932060716e+001dB,-9.23239831226505e+001°)
1.37598551272118e+001	(-3.36636399869973e+001dB,-9.23775583515659e+001°)
1.40771536691173e+001	(-3.34657945357978e+001dB,-9.24323679356323e+001°)
1.44017690296787e+001	(-3.32679572145273e+001dB,-9.24884402626856e+001°)
1.47338699327573e+001	(-3.30701284020995e+001dB,-9.25458043697990e+001°)
1.50736289929413e+001	(-3.28723084950707e+001dB,-9.26044899578744e+001°)
1.54212228052647e+001	(-3.26744979084594e+001dB,-9.26645274065426e+001°)
1.57768320369953e+001	(-3.24766970766046e+001dB,-9.27259477893802e+001°)
1.61406415215390e+001	(-3.22789064540628e+001dB,-9.27887828894439e+001°)
1.65128403545105e+001	(-3.20811265165471e+001dB,-9.28530652151334e+001°)
1.68936219920180e+001	(-3.18833577619092e+001dB,-9.29188280163818e+001°)
1.72831843512154e+001	(-3.16856007111674e+001dB,-9.29861053011837e+001°)
1.76817299131726e+001	(-3.14878559095817e+001dB,-9.30549318524637e+001°)
1.80894658281186e+001	(-3.12901239277784e+001dB,-9.31253432452896e+001°)
1.85066040231103e+001	(-3.10924053629267e+001dB,-9.31973758644381e+001°)
1.89333613121855e+001	(-3.08947008399698e+001dB,-9.32710669223146e+001°)
1.93699595090551e+001	(-3.06970110129123e+001dB,-9.33464544772342e+001°)
1.98166255423943e+001	(-3.04993365661673e+001dB,-9.34235774520672e+001°)
2.02735915737920e+001	(-3.03016782159650e+001dB,-9.35024756532536e+001°)
2.07410951184210e+001	(-3.01040367118268e+001dB,-9.35831897901927e+001°)
2.12193791684896e+001	(-2.99064128381064e+001dB,-9.36657614950081e+001°)
2.17086923195407e+001	(-2.97088074156020e+001dB,-9.37502333426965e+001°)
2.22092888996635e+001	(-2.95112213032431e+001dB,-9.38366488716596e+001°)
2.27214291016839e+001	(-2.93136553998532e+001dB,-9.39250526046261e+001°)
2.32453791184045e+001	(-2.91161106459952e+001dB,-9.40154900699641e+001°)
2.37814112809616e+001	(-2.89185880258993e+001dB,-9.41080078233879e+001°)
2.43298042003741e+001	(-2.87210885694808e+001dB,-9.42026534700609e+001°)
2.48908429123559e+001	(-2.85236133544490e+001dB,-9.42994756870974e+001°)
2.54648190254672e+001	(-2.83261635085130e+001dB,-9.43985242464635e+001°)
2.60520308726828e+001	(-2.81287402116879e+001dB,-9.44998500382784e+001°)
2.66527836664556e+001	(-2.79313446987059e+001dB,-9.46035050945167e+001°)
2.72673896573548e+001	(-2.77339782615377e+001dB,-9.47095426131117e+001°)
2.78961682963639e+001	(-2.75366422520278e+001dB,-9.48180169824578e+001°)
2.85394464009192e+001	(-2.73393380846500e+001dB,-9.49289838063111e+001°)
2.91975583247791e+001	(-2.71420672393879e+001dB,-9.50424999290854e+001°)
2.98708461318094e+001	(-2.69448312647452e+001dB,-9.51586234615412e+001°)
3.05596597737761e+001	(-2.67476317808928e+001dB,-9.52774138068616e+001°)
3.12643572722383e+001	(-2.65504704829578e+001dB,-9.53989316871121e+001°)
3.19853049046358e+001	(-2.63533491444606e+001dB,-9.55232391700763e+001°)
3.27228773946670e+001	(-2.61562696209071e+001dB,-9.56503996964610e+001°)
3.34774581070575e+001	(-2.59592338535418e+001dB,-9.57804781074615e+001°)
3.42494392468202e+001	(-2.57622438732693e+001dB,-9.59135406726768e+001°)
3.50392220631093e+001	(-2.55653018047522e+001dB,-9.60496551183638e+001°)
3.58472170577762e+001	(-2.53684098706907e+001dB,-9.61888906560167e+001°)
3.66738441987343e+001	(-2.51715703962941e+001dB,-9.63313180112564e+001°)
3.75195331382434e+001	(-2.49747858139507e+001dB,-9.64770094530144e+001°)
3.83847234362283e+001	(-2.47780586681049e+001dB,-9.66260388229898e+001°)
3.92698647887472e+001	(-2.45813916203507e+001dB,-9.67784815653625e+001°)
4.01754172617275e+001	(-2.43847874547497e+001dB,-9.69344147567353e+001°)
4.11018515300930e+001	(-2.41882490833834e+001dB,-9.70939171362810e+001°)
4.20496491224038e+001	(-2.39917795521494e+001dB,-9.72570691360671e+001°)
4.30193026711388e+001	(-2.37953820468115e+001dB,-9.74239529115242e+001°)
4.40113161687483e+001	(-2.35990598993137e+001dB,-9.75946523720275e+001°)
4.50262052296129e+001	(-2.34028165943690e+001dB,-9.77692532115495e+001°)
4.60644973580411e+001	(-2.32066557763340e+001dB,-9.79478429393468e+001°)
4.71267322224485e+001	(-2.30105812563802e+001dB,-9.81305109106337e+001°)
4.82134619358584e+001	(-2.28145970199744e+001dB,-9.83173483571959e+001°)
4.93252513428714e+001	(-2.26187072346790e+001dB,-9.85084484178881e+001°)
5.04626783132518e+001	(-2.24229162582859e+001dB,-9.87039061689617e+001°)
5.16263340422848e+001	(-2.22272286472957e+001dB,-9.89038186541582e+001°)
5.28168233580590e+001	(-2.20316491657554e+001dB,-9.91082849144997e+001°)
5.40347650358353e+001	(-2.18361827944681e+001dB,-9.93174060177064e+001°)
5.52807921196651e+001	(-2.16408347405882e+001dB,-9.95312850871588e+001°)
5.65555522514245e+001	(-2.14456104476157e+001dB,-9.97500273303222e+001°)
5.78597080074362e+001	(-2.12505156058046e+001dB,-9.99737400665394e+001°)
5.91939372428541e+001	(-2.10555561629988e+001dB,-1.00202532754095e+002°)
6.05589334439887e+001	(-2.08607383359108e+001dB,-1.00436517016445e+002°)
6.19554060887576e+001	(-2.06660686218583e+001dB,-1.00675806667490e+002°)
6.33840810154473e+001	(-2.04715538109732e+001dB,-1.00920517735786e+002°)
6.48457007999791e+001	(-2.02772009988982e+001dB,-1.01170768487543e+002°)
6.63410251418748e+001	(-2.00830175999873e+001dB,-1.01426679448284e+002°)
6.78708312591215e+001	(-1.98890113610242e+001dB,-1.01688373423002e+002°)
6.94359142921434e+001	(-1.96951903754750e+001dB,-1.01955975514670e+002°)
7.10370877170878e+001	(-1.95015630982897e+001dB,-1.02229613140913e+002°)
7.26751837686424e+001	(-1.93081383612684e+001dB,-1.02509416048674e+002°)
7.43510538726019e+001	(-1.91149253890074e+001dB,-1.02795516326668e+002°)
7.60655690884099e+001	(-1.89219338154381e+001dB,-1.03088048415421e+002°)
7.78196205619054e+001	(-1.87291737009754e+001dB,-1.03387149114669e+002°)
7.96141199885094e+001	(-1.85366555502877e+001dB,-1.03692957587884e+002°)
8.14500000870935e+001	(-1.83443903307028e+001dB,-1.04005615363666e+002°)
8.33282150847742e+001	(-1.81523894912609e+001dB,-1.04325266333756e+002°)
8.52497412128875e+001	(-1.79606649824282e+001dB,-1.04652056747365e+002°)
8.72155772144005e+001	(-1.77692292764792e+001dB,-1.04986135201528e+002°)
8.92267448630230e+001	(-1.75780953885604e+001dB,-1.05327652627179e+002°)
9.12842894942907e+001	(-1.73872768984392e+001dB,-1.05676762270591e+002°)
9.33892805488944e+001	(-1.71967879729491e+001dB,-1.06033619669851e+002°)
9.55428121285382e+001	(-1.70066433891315e+001dB,-1.06398382625978e+002°)
9.77460035646158e+001	(-1.68168585580806e+001dB,-1.06771211168311e+002°)
1.00000000000001e+002	(-1.66274495494881e+001dB,-1.07152267513743e+002°)
1.02305972984252e+002	(-1.64384331168889e+001dB,-1.07541716019379e+002°)
1.04665121082543e+002	(-1.62498267235994e+001dB,-1.07939723128152e+002°)
1.07078670498640e+002	(-1.60616485693439e+001dB,-1.08346457306944e+002°)
1.09547875712234e+002	(-1.58739176175527e+001dB,-1.08762088976698e+002°)
1.12074020130979e+002	(-1.56866536233214e+001dB,-1.09186790434015e+002°)
1.14658416757563e+002	(-1.54998771620062e+001dB,-1.09620735763700e+002°)
1.17302408872162e+002	(-1.53136096584354e+001dB,-1.10064100741691e+002°)
1.20007370730630e+002	(-1.51278734167033e+001dB,-1.10517062727802e+002°)
1.22774708278788e+002	(-1.49426916505142e+001dB,-1.10979800547674e+002°)
1.25605859883189e+002	(-1.47580885140326e+001dB,-1.11452494363325e+002°)
1.28502297078732e+002	(-1.45740891331937e+001dB,-1.11935325531652e+002°)
1.31465525333509e+002	(-1.43907196374168e+001dB,-1.12428476450242e+002°)
1.34497084831303e+002	(-1.42080071916611e+001dB,-1.12932130389833e+002°)
1.37598551272118e+002	(-1.40259800287503e+001dB,-1.13446471312720e+002°)
1.40771536691174e+002	(-1.38446674818883e+001dB,-1.13971683676452e+002°)
1.44017690296787e+002	(-1.36641000172741e+001dB,-1.14507952222089e+002°)
1.47338699327573e+002	(-1.34843092667189e+001dB,-1.15055461746344e+002°)
1.50736289929413e+002	(-1.33053280601533e+001dB,-1.15614396856898e+002°)
1.54212228052648e+002	(-1.31271904579029e+001dB,-1.16184941710190e+002°)
1.57768320369953e+002	(-1.29499317826005e+001dB,-1.16767279731002e+002°)
1.61406415215391e+002	(-1.27735886505867e+001dB,-1.17361593313158e+002°)
1.65128403545105e+002	(-1.25981990026410e+001dB,-1.17968063500692e+002°)
1.68936219920180e+002	(-1.24238021338696e+001dB,-1.18586869648858e+002°)
1.72831843512154e+002	(-1.22504387225638e+001dB,-1.19218189064391e+002°)
1.76817299131727e+002	(-1.20781508578257e+001dB,-1.19862196624479e+002°)
1.80894658281187e+002	(-1.19069820657464e+001dB,-1.20519064373953e+002°)
1.85066040231104e+002	(-1.17369773339016e+001dB,-1.21188961100264e+002°)
1.89333613121856e+002	(-1.15681831339207e+001dB,-1.21872051885888e+002°)
1.93699595090552e+002	(-1.14006474418622e+001dB,-1.22568497637898e+002°)
1.98166255423943e+002	(-1.12344197561199e+001dB,-1.23278454594522e+002°)
2.02735915737921e+002	(-1.10695511125627e+001dB,-1.24002073808623e+002°)
2.07410951184211e+002	(-1.09060940966011e+001dB,-1.24739500608170e+002°)
2.12193791684897e+002	(-1.07441028518553e+001dB,-1.25490874033881e+002°)
2.17086923195408e+002	(-1.05836330850887e+001dB,-1.26256326254423e+002°)
2.22092888996636e+002	(-1.04247420670561e+001dB,-1.27035981959634e+002°)
2.27214291016840e+002	(-1.02674886289068e+001dB,-1.27829957732548e+002°)
2.32453791184046e+002	(-1.01119331537705e+001dB,-1.28638361401047e+002°)
2.37814112809617e+002	(-9.95813756315049e+000dB,-1.29461291370314e+002°)
2.43298042003742e+002	(-9.80616529773770e+000dB,-1.30298835937424e+002°)
2.48908429123560e+002	(-9.65608129226128e+000dB,-1.31151072589657e+002°)
2.54648190254672e+002	(-9.50795194398951e+000dB,-1.32018067288410e+002°)
2.60520308726829e+002	(-9.36184507449795e+000dB,-1.32899873740818e+002°)
2.66527836664557e+002	(-9.21782988433098e+000dB,-1.33796532661534e+002°)
2.72673896573549e+002	(-9.07597690019233e+000dB,-1.34708071027337e+002°)
2.78961682963640e+002	(-8.93635791431807e+000dB,-1.35634501327621e+002°)
2.85394464009193e+002	(-8.79904591570538e+000dB,-1.36575820814071e+002°)
2.91975583247792e+002	(-8.66411501289729e+000dB,-1.37532010753172e+002°)
2.98708461318095e+002	(-8.53164034805480e+000dB,-1.38503035685483e+002°)
3.05596597737762e+002	(-8.40169800208605e+000dB,-1.39488842695938e+002°)
3.12643572722384e+002	(-8.27436489064568e+000dB,-1.40489360699722e+002°)
3.19853049046359e+002	(-8.14971865086713e+000dB,-1.41504499748539e+002°)
3.27228773946671e+002	(-8.02783751874731e+000dB,-1.42534150362369e+002°)
3.34774581070576e+002	(-7.90880019716495e+000dB,-1.43578182892027e+002°)
3.42494392468203e+002	(-7.79268571458363e+000dB,-1.44636446918085e+002°)
3.50392220631094e+002	(-7.67957327456335e+000dB,-1.45708770691826e+002°)
3.58472170577763e+002	(-7.56954209628639e+000dB,-1.46794960624085e+002°)
3.66738441987344e+002	(-7.46267124638699e+000dB,-1.47894800827878e+002°)
3.75195331382435e+002	(-7.35903946246485e+000dB,-1.49008052720751e+002°)
3.83847234362284e+002	(-7.25872496875519e+000dB,-1.50134454692757e+002°)
3.92698647887473e+002	(-7.16180528452489e+000dB,-1.51273721845862e+002°)
4.01754172617276e+002	(-7.06835702586071e+000dB,-1.52425545810385e+002°)
4.11018515300931e+002	(-6.97845570161549e+000dB,-1.53589594643900e+002°)
4.20496491224040e+002	(-6.89217550437380e+000dB,-1.54765512817613e+002°)
4.30193026711389e+002	(-6.80958909739536e+000dB,-1.55952921294926e+002°)
4.40113161687485e+002	(-6.73076739858429e+000dB,-1.57151417706328e+002°)
4.50262052296130e+002	(-6.65577936261966e+000dB,-1.58360576624275e+002°)
4.60644973580413e+002	(-6.58469176245987e+000dB,-1.59579949941017e+002°)
4.71267322224486e+002	(-6.51756897150562e+000dB,-1.60809067351675e+002°)
4.82134619358586e+002	(-6.45447274776405e+000dB,-1.62047436944055e+002°)
4.93252513428715e+002	(-6.39546202140628e+000dB,-1.63294545895879e+002°)
