Freq.	V(vo)
1.00000000000000e+003	2.00007413179007e-003,1.28138103026864e-006
1.02305972984251e+003	2.00007413674255e-003,1.31092933327212e-006
1.04665121082543e+003	2.00007413938577e-003,1.34115903254013e-006
1.07078670498640e+003	2.00007414359929e-003,1.37208580264523e-006
1.09547875712233e+003	2.00007414649830e-003,1.40372571606390e-006
1.12074020130978e+003	2.00007415146500e-003,1.43609527159827e-006
1.14658416757562e+003	2.00007415464112e-003,1.46921123805671e-006
1.17302408872161e+003	2.00007416037876e-003,1.50309086741662e-006
1.20007370730629e+003	2.00007416529926e-003,1.53775173850509e-006
1.22774708278787e+003	2.00007416894079e-003,1.57321187068567e-006
1.25605859883189e+003	2.00007417467843e-003,1.60948975228012e-006
1.28502297078731e+003	2.00007418108397e-003,1.64660415582731e-006
1.31465525333508e+003	2.00007418718398e-003,1.68457442230025e-006
1.34497084831302e+003	2.00007419301754e-003,1.72342026925963e-006
1.37598551272117e+003	2.00007419757567e-003,1.76316187611891e-006
1.40771536691173e+003	2.00007420477702e-003,1.80381994809315e-006
1.44017690296786e+003	2.00007421171902e-003,1.84541554566879e-006
1.47338699327572e+003	2.00007421888485e-003,1.88797036171528e-006
1.50736289929412e+003	2.00007422631357e-003,1.93150645858432e-006
1.54212228052647e+003	2.00007423349716e-003,1.97604650258889e-006
1.57768320369952e+003	2.00007424337725e-003,2.02161362900019e-006
1.61406415215389e+003	2.00007425159823e-003,2.06823152020733e-006
1.65128403545104e+003	2.00007426060436e-003,2.11592440571729e-006
1.68936219920179e+003	2.00007426941865e-003,2.16471707636583e-006
1.72831843512153e+003	2.00007428049956e-003,2.21463490563374e-006
1.76817299131726e+003	2.00007428997820e-003,2.26570381411970e-006
1.80894658281185e+003	2.00007430174834e-003,2.31795036901630e-006
1.85066040231103e+003	2.00007431194285e-003,2.37140171305569e-006
1.89333613121855e+003	2.00007432446972e-003,2.42608563556396e-006
1.93699595090551e+003	2.00007433690600e-003,2.48203057246103e-006
1.98166255423942e+003	2.00007434879871e-003,2.53926556362816e-006
2.02735915737920e+003	2.00007436210184e-003,2.59782037370021e-006
2.07410951184210e+003	2.00007437829511e-003,2.65772547785474e-006
2.12193791684895e+003	2.00007439157160e-003,2.71901196944149e-006
2.17086923195406e+003	2.00007440875963e-003,2.78171171630178e-006
2.22092888996634e+003	2.00007442404341e-003,2.84585728971421e-006
2.27214291016839e+003	2.00007444085662e-003,2.91148205676527e-006
2.32453791184044e+003	2.00007445921705e-003,2.97862013061128e-006
2.37814112809615e+003	2.00007447721687e-003,3.04730637047844e-006
2.43298042003741e+003	2.00007449488985e-003,3.11757650956050e-006
2.48908429123558e+003	2.00007451612975e-003,3.18946708396449e-006
2.54648190254671e+003	2.00007453951904e-003,3.26301544692158e-006
2.60520308726827e+003	2.00007456121813e-003,3.33825979720879e-006
2.66527836664555e+003	2.00007458416066e-003,3.41523927862495e-006
2.72673896573547e+003	2.00007460984945e-003,3.49399389472561e-006
2.78961682963638e+003	2.00007463443067e-003,3.57456457277186e-006
2.85394464009191e+003	2.00007466231148e-003,3.65699320636288e-006
2.91975583247790e+003	2.00007469207612e-003,3.74132265543598e-006
2.98708461318093e+003	2.00007471940804e-003,3.82759667876502e-006
3.05596597737760e+003	2.00007475016743e-003,3.91586019330850e-006
3.12643572722382e+003	2.00007478343416e-003,4.00615905394132e-006
3.19853049046357e+003	2.00007481731106e-003,4.09854019911603e-006
3.27228773946669e+003	2.00007485137270e-003,4.19305162244115e-006
3.34774581070574e+003	2.00007489003067e-003,4.28974249702610e-006
3.42494392468201e+003	2.00007492753045e-003,4.38866302626729e-006
3.50392220631091e+003	2.00007496876680e-003,4.48986467122172e-006
3.58472170577761e+003	2.00007501138870e-003,4.59340000139306e-006
3.66738441987342e+003	2.00007505593663e-003,4.69932286881462e-006
3.75195331382432e+003	2.00007510151528e-003,4.80768829080976e-006
3.83847234362282e+003	2.00007515207040e-003,4.91855263828574e-006
3.92698647887470e+003	2.00007520138073e-003,5.03197347230889e-006
4.01754172617274e+003	2.00007525532558e-003,5.14800981411084e-006
4.11018515300928e+003	2.00007530963725e-003,5.26672192126758e-006
4.20496491224037e+003	2.00007536778585e-003,5.38817155060024e-006
4.30193026711386e+003	2.00007542986464e-003,5.51242181251385e-006
4.40113161687481e+003	2.00007549401954e-003,5.63953727757874e-006
4.50262052296127e+003	2.00007556035981e-003,5.76958401205769e-006
4.60644973580409e+003	2.00007563140032e-003,5.90262965251289e-006
4.71267322224483e+003	2.00007570385925e-003,6.03874331343543e-006
4.82134619358582e+003	2.00007578318069e-003,6.17799579685535e-006
4.93252513428712e+003	2.00007586172364e-003,6.32045939338972e-006
5.04626783132516e+003	2.00007594639680e-003,6.46620825527755e-006
5.16263340422846e+003	2.00007603345139e-003,6.61531807308286e-006
5.28168233580588e+003	2.00007612641147e-003,6.76786639899160e-006
5.40347650358351e+003	2.00007622348005e-003,6.92393250825584e-006
5.52807921196649e+003	2.00007632286122e-003,7.08359750932790e-006
5.65555522514243e+003	2.00007642907471e-003,7.24694443267817e-006
5.78597080074360e+003	2.00007654034015e-003,7.41405817039896e-006
5.91939372428539e+003	2.00007665585975e-003,7.58502557212784e-006
6.05589334439885e+003	2.00007677774425e-003,7.75993554452353e-006
6.19554060887574e+003	2.00007690423707e-003,7.93887896777721e-006
6.33840810154470e+003	2.00007703795456e-003,8.12194890166986e-006
6.48457007999789e+003	2.00007717571192e-003,8.30924043991100e-006
6.63410251418746e+003	2.00007732110362e-003,8.50085101744848e-006
6.78708312591213e+003	2.00007747290464e-003,8.69688018309471e-006
6.94359142921431e+003	2.00007763327947e-003,8.89742989795471e-006
7.10370877170875e+003	2.00007780005396e-003,9.10260435601397e-006
7.26751837686421e+003	2.00007797346714e-003,9.31251020263044e-006
7.43510538726016e+003	2.00007815718796e-003,9.52725662868135e-006
7.60655690884096e+003	2.00007834761153e-003,9.74695518759852e-006
7.78196205619050e+003	2.00007854745801e-003,9.97172012577069e-006
7.96141199885091e+003	2.00007875653510e-003,1.02016682812912e-005
8.14500000870932e+003	2.00007897710989e-003,1.04369192349484e-005
8.33282150847739e+003	2.00007920660309e-003,1.06775952054203e-005
8.52497412128872e+003	2.00007944584761e-003,1.09238213157285e-005
8.72155772144001e+003	2.00007969665799e-003,1.11757256038962e-005
8.92267448630227e+003	2.00007996087809e-003,1.14334390566986e-005
9.12842894942904e+003	2.00008023502036e-003,1.16970955528202e-005
9.33892805488941e+003	2.00008052338925e-003,1.19668322483235e-005
9.55428121285378e+003	2.00008082496380e-003,1.22427893386176e-005
9.77460035646154e+003	2.00008114020431e-003,1.25251102769502e-005
1.00000000000000e+004	2.00008147103585e-003,1.28139418738832e-005
1.02305972984251e+004	2.00008181845756e-003,1.31094343043983e-005
1.04665121082543e+004	2.00008218152703e-003,1.34117411469769e-005
1.07078670498640e+004	2.00008255886614e-003,1.37210195043924e-005
1.09547875712234e+004	2.00008295298656e-003,1.40374302328600e-005
1.12074020130978e+004	2.00008336981975e-003,1.43611379811170e-005
1.14658416757563e+004	2.00008380368942e-003,1.46923108600197e-005
1.17302408872162e+004	2.00008425962661e-003,1.50311211903904e-005
1.20007370730629e+004	2.00008473541497e-003,1.53777450269534e-005
1.22774708278787e+004	2.00008523321667e-003,1.57323626361749e-005
1.25605859883189e+004	2.00008575525804e-003,1.60951584385315e-005
1.28502297078731e+004	2.00008630086639e-003,1.64663210227212e-005
1.31465525333509e+004	2.00008687087611e-003,1.68460433668196e-005
1.34497084831303e+004	2.00008747002991e-003,1.72345230496666e-005
1.37598551272118e+004	2.00008809293773e-003,1.76319618369749e-005
1.40771536691173e+004	2.00008875120524e-003,1.80385667835597e-005
1.44017690296787e+004	2.00008943371273e-003,1.84545488557741e-005
1.47338699327572e+004	2.00009015168296e-003,1.88801247513862e-005
1.50736289929413e+004	2.00009090329597e-003,1.93155156650116e-005
1.54212228052647e+004	2.00009168823632e-003,1.97609479373715e-005
1.57768320369953e+004	2.00009251206127e-003,2.02166533954651e-005
1.61406415215390e+004	2.00009337311246e-003,2.06828688951578e-005
1.65128403545105e+004	2.00009427366775e-003,2.11598369322479e-005
1.68936219920180e+004	2.00009521557411e-003,2.16478055785178e-005
1.72831843512154e+004	2.00009620366754e-003,2.21470287783855e-005
1.76817299131726e+004	2.00009723750131e-003,2.26577660797864e-005
1.80894658281186e+004	2.00009831767934e-003,2.31802830729339e-005
1.85066040231103e+004	2.00009945117374e-003,2.37148517962166e-005
1.89333613121855e+004	2.00010063534747e-003,2.42617500816107e-005
1.93699595090551e+004	2.00010187393022e-003,2.48212624925967e-005
1.98166255423943e+004	2.00010317220596e-003,2.53936802566576e-005
2.02735915737920e+004	2.00010453069138e-003,2.59793010663271e-005
2.07410951184210e+004	2.00010595193838e-003,2.65784295943332e-005
2.12193791684896e+004	2.00010744101246e-003,2.71913776961022e-005
2.17086923195407e+004	2.00010899872175e-003,2.78184641770571e-005
2.22092888996635e+004	2.00011062889139e-003,2.84600153805904e-005
2.27214291016839e+004	2.00011233593453e-003,2.91163652298097e-005
2.32453791184045e+004	2.00011412002648e-003,2.97878550863164e-005
2.37814112809616e+004	2.00011599018133e-003,3.04748347636178e-005
2.43298042003741e+004	2.00011794729857e-003,3.11776616327313e-005
2.48908429123559e+004	2.00011999533139e-003,3.18967015165799e-005
2.54648190254671e+004	2.00012213836386e-003,3.26323286957657e-005
2.60520308726828e+004	2.00012438109916e-003,3.33849261443809e-005
2.66527836664555e+004	2.00012672987126e-003,3.41548858013466e-005
2.72673896573548e+004	2.00012918679454e-003,3.49426083594701e-005
2.78961682963638e+004	2.00013176045652e-003,3.57485042451062e-005
2.85394464009191e+004	2.00013445282702e-003,3.65729928783040e-005
2.91975583247791e+004	2.00013727140951e-003,3.74165037919120e-005
2.98708461318094e+004	2.00014022048049e-003,3.82794761963707e-005
3.05596597737761e+004	2.00014330841909e-003,3.91623597923959e-005
3.12643572722383e+004	2.00014654089294e-003,4.00656144578955e-005
3.19853049046358e+004	2.00014992234010e-003,4.09897105885862e-005
3.27228773946670e+004	2.00015346420885e-003,4.19351300834274e-005
3.34774581070575e+004	2.00015716850715e-003,4.29023651371425e-005
3.42494392468202e+004	2.00016104863441e-003,4.38919203758442e-005
3.50392220631093e+004	2.00016510662364e-003,4.49043110398211e-005
3.58472170577762e+004	2.00016935641606e-003,4.59400654282491e-005
3.66738441987343e+004	2.00017380401200e-003,4.69997233004698e-005
3.75195331382434e+004	2.00017845909369e-003,4.80838372735400e-005
3.83847234362283e+004	2.00018333362191e-003,4.91929729994225e-005
3.92698647887471e+004	2.00018843259779e-003,5.03277084926355e-005
4.01754172617275e+004	2.00019377107917e-003,5.14886362316824e-005
4.11018515300930e+004	2.00019935963567e-003,5.26763619435802e-005
4.20496491224038e+004	2.00020520922818e-003,5.38915054303088e-005
4.30193026711387e+004	2.00021133024139e-003,5.51347007846389e-005
4.40113161687483e+004	2.00021773784359e-003,5.64065973666838e-005
4.50262052296129e+004	2.00022444473558e-003,5.77078592989704e-005
4.60644973580411e+004	2.00023146506010e-003,5.90391662920006e-005
4.71267322224485e+004	2.00023881389764e-003,6.04012139377943e-005
4.82134619358584e+004	2.00024650638794e-003,6.17947139878895e-005
4.93252513428713e+004	2.00025455719371e-003,6.32203946468853e-005
5.04626783132518e+004	2.00026298398909e-003,6.46790014275353e-005
5.16263340422848e+004	2.00027180597137e-003,6.61712973867811e-005
5.28168233580590e+004	2.00028104005285e-003,6.76980629909717e-005
5.40347650358353e+004	2.00029070621228e-003,6.92600972833734e-005
5.52807921196651e+004	2.00030082266012e-003,7.08582176230456e-005
5.65555522514245e+004	2.00031141170817e-003,7.24932610000111e-005
5.78597080074362e+004	2.00032249640482e-003,7.41660840017272e-005
5.91939372428541e+004	2.00033409958749e-003,7.58775631330520e-005
6.05589334439887e+004	2.00034624539275e-003,7.76285955205699e-005
6.19554060887576e+004	2.00035895977375e-003,7.94200994954587e-005
6.33840810154472e+004	2.00037226907638e-003,8.12530148697131e-005
6.48457007999791e+004	2.00038619864084e-003,8.31283031832802e-005
6.63410251418748e+004	2.00040078156686e-003,8.50469497981625e-005
6.78708312591215e+004	2.00041604712373e-003,8.70099624080539e-005
6.94359142921433e+004	2.00043202613696e-003,8.90183725167133e-005
7.10370877170877e+004	2.00044875345940e-003,9.10732365111060e-005
7.26751837686423e+004	2.00046626366438e-003,9.31756354291446e-005
7.43510538726019e+004	2.00048459499074e-003,9.53266763565723e-005
7.60655690884099e+004	2.00050378114212e-003,9.75274913482697e-005
7.78196205619053e+004	2.00052386687870e-003,9.97792412969380e-005
7.96141199885094e+004	2.00054489400995e-003,1.02083113721535e-004
8.14500000870935e+004	2.00056690876876e-003,1.04440324981948e-004
8.33282150847741e+004	2.00058995164409e-003,1.06852118703142e-004
8.52497412128875e+004	2.00061407644532e-003,1.09319770771166e-004
8.72155772144004e+004	2.00063933042527e-003,1.11844585583704e-004
8.92267448630230e+004	2.00066576896941e-003,1.14427900173226e-004
9.12842894942907e+004	2.00069344790235e-003,1.17071083210447e-004
9.33892805488944e+004	2.00072242551346e-003,1.19775536275758e-004
9.55428121285381e+004	2.00075276171692e-003,1.22542694435873e-004
9.77460035646158e+004	2.00078452151768e-003,1.25374028022409e-004
1.00000000000001e+005	2.00081777561738e-003,1.28271043713463e-004
1.02305972984252e+005	2.00085258648276e-003,1.31235281584085e-004
1.04665121082543e+005	2.00088903560350e-003,1.34268323559179e-004
1.07078670498640e+005	2.00092719694971e-003,1.37371787019400e-004
1.09547875712234e+005	2.00096715362175e-003,1.40547330441972e-004
1.12074020130979e+005	2.00100898582597e-003,1.43796650911570e-004
1.14658416757563e+005	2.00105278706942e-003,1.47121490018711e-004
1.17302408872162e+005	2.00109864974166e-003,1.50523630626231e-004
1.20007370730630e+005	2.00114667160250e-003,1.54004899911073e-004
1.22774708278788e+005	2.00119695303902e-003,1.57567169630742e-004
1.25605859883189e+005	2.00124960696666e-003,1.61212360667889e-004
1.28502297078732e+005	2.00130473960215e-003,1.64942437695693e-004
1.31465525333509e+005	2.00136247300009e-003,1.68759418196088e-004
1.34497084831303e+005	2.00142292975888e-003,1.72665368465406e-004
1.37598551272118e+005	2.00148623854530e-003,1.76662406871769e-004
1.40771536691174e+005	2.00155253974403e-003,1.80752707438001e-004
1.44017690296787e+005	2.00162197499605e-003,1.84938497353952e-004
1.47338699327573e+005	2.00169469182333e-003,1.89222060137192e-004
1.50736289929413e+005	2.00177084737330e-003,1.93605738658479e-004
1.54212228052648e+005	2.00185060869231e-003,1.98091936963524e-004
1.57768320369953e+005	2.00193415013777e-003,2.02683120921472e-004
1.61406415215391e+005	2.00202164935342e-003,2.07381818091567e-004
1.65128403545105e+005	2.00211330075615e-003,2.12190625410887e-004
1.68936219920180e+005	2.00220930135008e-003,2.17112204774881e-004
1.72831843512154e+005	2.00230986473147e-003,2.22149291317302e-004
1.76817299131727e+005	2.00241520889788e-003,2.27304689770008e-004
1.80894658281187e+005	2.00252556448557e-003,2.32581280298069e-004
1.85066040231104e+005	2.00264117719653e-003,2.37982021985207e-004
1.89333613121856e+005	2.00276230153502e-003,2.43509951932844e-004
1.93699595090552e+005	2.00288920620652e-003,2.49168190282198e-004
1.98166255423943e+005	2.00302217177163e-003,2.54959941406053e-004
2.02735915737921e+005	2.00316149471474e-003,2.60888498524344e-004
2.07410951184211e+005	2.00330748517390e-003,2.66957245107422e-004
2.12193791684897e+005	2.00346047152103e-003,2.73169660166547e-004
2.17086923195408e+005	2.00362079627489e-003,2.79529318726396e-004
2.22092888996636e+005	2.00378882079878e-003,2.86039897423419e-004
2.27214291016840e+005	2.00396492858138e-003,2.92705179698520e-004
2.32453791184046e+005	2.00414951344463e-003,2.99529051612903e-004
2.37814112809617e+005	2.00434299764735e-003,3.06515516284744e-004
2.43298042003742e+005	2.00454582455482e-003,3.13668693013617e-004
2.48908429123560e+005	2.00475845931135e-003,3.20992821167550e-004
2.54648190254672e+005	2.00498138997206e-003,3.28492264593051e-004
2.60520308726829e+005	2.00521513318170e-003,3.36171519442959e-004
2.66527836664557e+005	2.00546023158617e-003,3.44035216487486e-004
2.72673896573550e+005	2.00571725624452e-003,3.52088127007389e-004
2.78961682963640e+005	2.00598680914613e-003,3.60335169057625e-004
2.85394464009193e+005	2.00626952383041e-003,3.68781412555841e-004
2.91975583247792e+005	2.00656607158513e-003,3.77432088889795e-004
2.98708461318095e+005	2.00687715246403e-003,3.86292588889649e-004
3.05596597737762e+005	2.00720351204616e-003,3.95368481289086e-004
3.12643572722385e+005	2.00754592975374e-003,4.04665508875226e-004
3.19853049046359e+005	2.00790523644454e-003,4.14189608762185e-004
3.27228773946671e+005	2.00828229902700e-003,4.23946905453069e-004
3.34774581070577e+005	2.00867804138044e-003,4.33943735045226e-004
3.42494392468203e+005	2.00909342535234e-003,4.44186634804692e-004
3.50392220631094e+005	2.00952948338500e-003,4.54682379700246e-004
3.58472170577764e+005	2.00998729801137e-003,4.65437970957235e-004
3.66738441987345e+005	2.01046800418796e-003,4.76460644968665e-004
3.75195331382435e+005	2.01097281572767e-003,4.87757906956665e-004
3.83847234362285e+005	2.01150300148379e-003,4.99337515474658e-004
3.92698647887473e+005	2.01205991572428e-003,5.11207521724473e-004
4.01754172617277e+005	2.01264497926676e-003,5.23376258988623e-004
4.11018515300932e+005	2.01325970314479e-003,5.35852376750576e-004
4.20496491224040e+005	2.01390567771744e-003,5.48644838740253e-004
4.30193026711389e+005	2.01458459305870e-003,5.61762955550890e-004
4.40113161687485e+005	2.01529823080102e-003,5.75216386067057e-004
4.50262052296131e+005	2.01604847827958e-003,5.89015164621906e-004
4.60644973580413e+005	2.01683733919474e-003,6.03169725626530e-004
4.71267322224487e+005	2.01766692662361e-003,6.17690907142821e-004
4.82134619358586e+005	2.01853948606310e-003,6.32589992084295e-004
4.93252513428715e+005	2.01945739051927e-003,6.47878715335280e-004
5.04626783132520e+005	2.02042315698013e-003,6.63569299077859e-004
5.16263340422850e+005	2.02143945162224e-003,6.79674474337351e-004
5.28168233580592e+005	2.02250909845620e-003,6.96207508054628e-004
5.40347650358355e+005	2.02363509169042e-003,7.13182236323310e-004
5.52807921196653e+005	2.02482061088730e-003,7.30613103245566e-004
5.65555522514247e+005	2.02606901734523e-003,7.48515173694908e-004
5.78597080074364e+005	2.02738388175551e-003,7.66904192862668e-004
5.91939372428544e+005	2.02876898848056e-003,7.85796612874651e-004
6.05589334439890e+005	2.03022835367213e-003,8.05209643101557e-004
6.19554060887578e+005	2.03176622776724e-003,8.25161275501679e-004
6.33840810154475e+005	2.03338713201525e-003,8.45670368277793e-004
6.48457007999794e+005	2.03509584929747e-003,8.66756657199289e-004
6.63410251418750e+005	2.03689746302804e-003,8.88440847923411e-004
6.78708312591217e+005	2.03879735475024e-003,9.10744642523639e-004
6.94359142921436e+005	2.04080123880522e-003,9.33690831777013e-004
7.10370877170880e+005	2.04291517199675e-003,9.57303347786393e-004
7.26751837686426e+005	2.04514557862172e-003,9.81607347897278e-004
7.43510538726022e+005	2.04749926979726e-003,1.00662929163563e-003
7.60655690884102e+005	2.04998346470504e-003,1.03239702709878e-003
7.78196205619056e+005	2.05260581273015e-003,1.05893988230498e-003
7.96141199885097e+005	2.05537442894165e-003,1.08628879209184e-003
8.14500000870938e+005	2.05829790081790e-003,1.11447637157627e-003
8.33282150847745e+005	2.06138533216494e-003,1.14353707412822e-003
8.52497412128878e+005	2.06464636154870e-003,1.17350730620255e-003
8.72155772144008e+005	2.06809118728277e-003,1.20442556375275e-003
8.92267448630233e+005	2.07173060729312e-003,1.23633261479237e-003
9.12842894942911e+005	2.07557603952601e-003,1.26927165050781e-003
9.33892805488948e+005	2.07963956091658e-003,1.30328849442987e-003
9.55428121285385e+005	2.08393392711050e-003,1.33843178308876e-003
