Freq.	V(v0)
1.00000000000000e+002	(1.60942275314976e+001dB,-5.18048748822061e-001°)
1.02305972984251e+002	(1.60942109747495e+001dB,-5.29994139623307e-001°)
1.04665121082543e+002	(1.60941936456765e+001dB,-5.42214940245470e-001°)
1.07078670498640e+002	(1.60941755075935e+001dB,-5.54717498148823e-001°)
1.09547875712233e+002	(1.60941565241212e+001dB,-5.67508307052348e-001°)
1.12074020130978e+002	(1.60941366551354e+001dB,-5.80594010036002e-001°)
1.14658416757562e+002	(1.60941158593348e+001dB,-5.93981403135918e-001°)
1.17302408872161e+002	(1.60940940934916e+001dB,-6.07677438809876e-001°)
1.20007370730629e+002	(1.60940713123624e+001dB,-6.21689229523596e-001°)
1.22774708278787e+002	(1.60940474685936e+001dB,-6.36024051418269e-001°)
1.25605859883189e+002	(1.60940225126246e+001dB,-6.50689348061140e-001°)
1.28502297078731e+002	(1.60939963925832e+001dB,-6.65692734280794e-001°)
1.31465525333508e+002	(1.60939690541780e+001dB,-6.81042000089117e-001°)
1.34497084831302e+002	(1.60939404405875e+001dB,-6.96745114691879e-001°)
1.37598551272117e+002	(1.60939104923407e+001dB,-7.12810230589589e-001°)
1.40771536691173e+002	(1.60938791471930e+001dB,-7.29245687770718e-001°)
1.44017690296786e+002	(1.60938463399984e+001dB,-7.46060017999344e-001°)
1.47338699327572e+002	(1.60938120025737e+001dB,-7.63261949199077e-001°)
1.50736289929412e+002	(1.60937760635575e+001dB,-7.80860409935376e-001°)
1.54212228052647e+002	(1.60937384479305e+001dB,-7.98864533967878e-001°)
1.57768320369952e+002	(1.60936990781839e+001dB,-8.17283665056674e-001°)
1.61406415215389e+002	(1.60936578721734e+001dB,-8.36127361572016e-001°)
1.65128403545104e+002	(1.60936147442715e+001dB,-8.55405401510789e-001°)
1.68936219920179e+002	(1.60935696048593e+001dB,-8.75127787472826e-001°)
1.72831843512153e+002	(1.60935223601412e+001dB,-8.95304751778339e-001°)
1.76817299131726e+002	(1.60934729119505e+001dB,-9.15946761698950e-001°)
1.80894658281185e+002	(1.60934211575447e+001dB,-9.37064524804601e-001°)
1.85066040231103e+002	(1.60933669890632e+001dB,-9.58668994392399e-001°)
1.89333613121855e+002	(1.60933102946261e+001dB,-9.80771375217592e-001°)
1.93699595090551e+002	(1.60932509561176e+001dB,-1.00338312898614e+000°)
1.98166255423942e+002	(1.60931888502643e+001dB,-1.02651598033268e+000°)
2.02735915737920e+002	(1.60931238480489e+001dB,-1.05018192274722e+000°)
2.07410951184210e+002	(1.60930558144434e+001dB,-1.07439322466806e+000°)
2.12193791684895e+002	(1.60929846081294e+001dB,-1.09916243570764e+000°)
2.17086923195407e+002	(1.60929100812050e+001dB,-1.12450239301378e+000°)
2.22092888996634e+002	(1.60928320788794e+001dB,-1.15042622776905e+000°)
2.27214291016839e+002	(1.60927504391510e+001dB,-1.17694737183067e+000°)
2.32453791184044e+002	(1.60926649924744e+001dB,-1.20407956451383e+000°)
2.37814112809615e+002	(1.60925755607458e+001dB,-1.23183685942663e+000°)
2.43298042003741e+002	(1.60924819595834e+001dB,-1.26023363192061e+000°)
2.48908429123558e+002	(1.60923839939742e+001dB,-1.28928458576284e+000°)
2.54648190254671e+002	(1.60922814605177e+001dB,-1.31900476088677e+000°)
2.60520308726827e+002	(1.60921741463440e+001dB,-1.34940954083888e+000°)
2.66527836664555e+002	(1.60920618286743e+001dB,-1.38051466047601e+000°)
2.72673896573548e+002	(1.60919442743604e+001dB,-1.41233621382421e+000°)
2.78961682963638e+002	(1.60918212394033e+001dB,-1.44489066210164e+000°)
2.85394464009191e+002	(1.60916924677883e+001dB,-1.47819484179581e+000°)
2.91975583247790e+002	(1.60915576936032e+001dB,-1.51226597346993e+000°)
2.98708461318093e+002	(1.60914166365186e+001dB,-1.54712166962623e+000°)
3.05596597737760e+002	(1.60912690038569e+001dB,-1.58277994385347e+000°)
3.12643572722382e+002	(1.60911144893282e+001dB,-1.61925921959877e+000°)
3.19853049046357e+002	(1.60909527720667e+001dB,-1.65657833916523e+000°)
3.27228773946669e+002	(1.60907835172945e+001dB,-1.69475657320517e+000°)
3.34774581070574e+002	(1.60906063736472e+001dB,-1.73381362977220e+000°)
3.42494392468201e+002	(1.60904209737730e+001dB,-1.77376966418085e+000°)
3.50392220631091e+002	(1.60902269329160e+001dB,-1.81464528867583e+000°)
3.58472170577761e+002	(1.60900238494497e+001dB,-1.85646158269650e+000°)
3.66738441987342e+002	(1.60898113020646e+001dB,-1.89924010264862e+000°)
3.75195331382433e+002	(1.60895888492358e+001dB,-1.94300289232920e+000°)
3.83847234362282e+002	(1.60893560316242e+001dB,-1.98777249423559e+000°)
3.92698647887470e+002	(1.60891123665028e+001dB,-2.03357195931727e+000°)
4.01754172617274e+002	(1.60888573487498e+001dB,-2.08042485836295e+000°)
4.11018515300929e+002	(1.60885904501475e+001dB,-2.12835529324511e+000°)
4.20496491224037e+002	(1.60883111179690e+001dB,-2.17738790820795e+000°)
4.30193026711386e+002	(1.60880187738478e+001dB,-2.22754790143008e+000°)
4.40113161687482e+002	(1.60877128122652e+001dB,-2.27886103670074e+000°)
4.50262052296127e+002	(1.60873925999745e+001dB,-2.33135365555042e+000°)
4.60644973580410e+002	(1.60870574747096e+001dB,-2.38505268942413e+000°)
4.71267322224483e+002	(1.60867067438320e+001dB,-2.43998567205418e+000°)
4.82134619358582e+002	(1.60863396812693e+001dB,-2.49618075155822e+000°)
4.93252513428712e+002	(1.60859555280193e+001dB,-2.55366670373688e+000°)
5.04626783132516e+002	(1.60855534892870e+001dB,-2.61247294465125e+000°)
5.16263340422846e+002	(1.60851327348501e+001dB,-2.67262954435377e+000°)
5.28168233580588e+002	(1.60846923957262e+001dB,-2.73416723975160e+000°)
5.40347650358352e+002	(1.60842315624092e+001dB,-2.79711744811590e+000°)
5.52807921196649e+002	(1.60837492826987e+001dB,-2.86151228066506e+000°)
5.65555522514243e+002	(1.60832445614269e+001dB,-2.92738455697725e+000°)
5.78597080074360e+002	(1.60827163568001e+001dB,-2.99476781851142e+000°)
5.91939372428539e+002	(1.60821635802779e+001dB,-3.06369634349886e+000°)
6.05589334439886e+002	(1.60815850907496e+001dB,-3.13420516006184e+000°)
6.19554060887574e+002	(1.60809796968658e+001dB,-3.20633006235489e+000°)
6.33840810154470e+002	(1.60803461510139e+001dB,-3.28010762395698e+000°)
6.48457007999789e+002	(1.60796831481405e+001dB,-3.35557521312747e+000°)
6.63410251418746e+002	(1.60789893238023e+001dB,-3.43277100798762e+000°)
6.78708312591213e+002	(1.60782632507822e+001dB,-3.51173401131274e+000°)
6.94359142921431e+002	(1.60775034352538e+001dB,-3.59250406524579e+000°)
7.10370877170875e+002	(1.60767083157954e+001dB,-3.67512186729508e+000°)
7.26751837686421e+002	(1.60758762593008e+001dB,-3.75962898521768e+000°)
7.43510538726017e+002	(1.60750055560979e+001dB,-3.84606787160261e+000°)
7.60655690884097e+002	(1.60740944218456e+001dB,-3.93448188151315e+000°)
7.78196205619051e+002	(1.60731409854525e+001dB,-4.02491528404411e+000°)
7.96141199885091e+002	(1.60721432949554e+001dB,-4.11741328191617e+000°)
8.14500000870932e+002	(1.60710993064463e+001dB,-4.21202202348066e+000°)
8.33282150847739e+002	(1.60700068833685e+001dB,-4.30878861941407e+000°)
8.52497412128872e+002	(1.60688637910434e+001dB,-4.40776115718830e+000°)
8.72155772144002e+002	(1.60676676956186e+001dB,-4.50898871770553e+000°)
8.92267448630227e+002	(1.60664161523054e+001dB,-4.61252138639572e+000°)
9.12842894942904e+002	(1.60651066092276e+001dB,-4.71841027218285e+000°)
9.33892805488941e+002	(1.60637363982265e+001dB,-4.82670751967104e+000°)
9.55428121285379e+002	(1.60623027271298e+001dB,-4.93746632167519e+000°)
9.77460035646155e+002	(1.60608026800111e+001dB,-5.05074093597792e+000°)
1.00000000000000e+003	(1.60592332100030e+001dB,-5.16658669781971e+000°)
1.02305972984251e+003	(1.60575911282835e+001dB,-5.28506002962199e+000°)
1.04665121082543e+003	(1.60558731066077e+001dB,-5.40621845835631e+000°)
1.07078670498640e+003	(1.60540756645061e+001dB,-5.53012062342677e+000°)
1.09547875712234e+003	(1.60521951667304e+001dB,-5.65682629020200e+000°)
1.12074020130978e+003	(1.60502278125802e+001dB,-5.78639635792869e+000°)
1.14658416757563e+003	(1.60481696331522e+001dB,-5.91889287208827e+000°)
1.17302408872162e+003	(1.60460164814438e+001dB,-6.05437903146536e+000°)
1.20007370730629e+003	(1.60437640254472e+001dB,-6.19291919634304e+000°)
1.22774708278787e+003	(1.60414077403080e+001dB,-6.33457889522604e+000°)
1.25605859883189e+003	(1.60389429005161e+001dB,-6.47942483064617e+000°)
1.28502297078731e+003	(1.60363645691757e+001dB,-6.62752488172287e+000°)
1.31465525333509e+003	(1.60336675951456e+001dB,-6.77894811150816e+000°)
1.34497084831303e+003	(1.60308465964578e+001dB,-6.93376476270291e+000°)
1.37598551272118e+003	(1.60278959558417e+001dB,-7.09204626111642e+000°)
1.40771536691173e+003	(1.60248098100303e+001dB,-7.25386521294627e+000°)
1.44017690296787e+003	(1.60215820390657e+001dB,-7.41929540031185e+000°)
1.47338699327573e+003	(1.60182062552707e+001dB,-7.58841177464722e+000°)
1.50736289929413e+003	(1.60146757967564e+001dB,-7.76129045215546e+000°)
1.54212228052647e+003	(1.60109837085477e+001dB,-7.93800869630777e+000°)
1.57768320369953e+003	(1.60071227392997e+001dB,-8.11864491177440e+000°)
1.61406415215390e+003	(1.60030853236784e+001dB,-8.30327862313869e+000°)
1.65128403545105e+003	(1.59988635741448e+001dB,-8.49199045948151e+000°)
1.68936219920180e+003	(1.59944492658924e+001dB,-8.68486212973843e+000°)
1.72831843512154e+003	(1.59898338262973e+001dB,-8.88197639930339e+000°)
1.76817299131727e+003	(1.59850083182031e+001dB,-9.08341705716120e+000°)
1.80894658281186e+003	(1.59799634299828e+001dB,-9.28926888630124e+000°)
1.85066040231103e+003	(1.59746894616939e+001dB,-9.49961762655199e+000°)
1.89333613121855e+003	(1.59691763073863e+001dB,-9.71454992904320e+000°)
1.93699595090551e+003	(1.59634134432114e+001dB,-9.93415331250355e+000°)
1.98166255423943e+003	(1.59573899145774e+001dB,-1.01585161142102e+001°)
2.02735915737920e+003	(1.59510943159707e+001dB,-1.03877274274733e+001°)
2.07410951184210e+003	(1.59445147801300e+001dB,-1.06218770446041e+001°)
2.12193791684896e+003	(1.59376389608923e+001dB,-1.08610553870436e+001°)
2.17086923195407e+003	(1.59304540171123e+001dB,-1.11053534306985e+001°)
2.22092888996635e+003	(1.59229465967053e+001dB,-1.13548626250859e+001°)
2.27214291016839e+003	(1.59151028215107e+001dB,-1.16096748069321e+001°)
2.32453791184045e+003	(1.59069082688481e+001dB,-1.18698821023075e+001°)
2.37814112809616e+003	(1.58983479593626e+001dB,-1.21355768297979e+001°)
2.43298042003742e+003	(1.58894063372240e+001dB,-1.24068513855110e+001°)
2.48908429123559e+003	(1.58800672535415e+001dB,-1.26837981238768e+001°)
2.54648190254672e+003	(1.58703139527051e+001dB,-1.29665092340761e+001°)
2.60520308726828e+003	(1.58601290547688e+001dB,-1.32550766016508e+001°)
2.66527836664556e+003	(1.58494945399569e+001dB,-1.35495916635236e+001°)
2.72673896573549e+003	(1.58383917328393e+001dB,-1.38501452524302e+001°)
2.78961682963639e+003	(1.58268012884472e+001dB,-1.41568274339350e+001°)
2.85394464009192e+003	(1.58147031754402e+001dB,-1.44697273276702e+001°)
2.91975583247791e+003	(1.58020766638885e+001dB,-1.47889329245848e+001°)
2.98708461318094e+003	(1.57889003115485e+001dB,-1.51145308899584e+001°)
3.05596597737761e+003	(1.57751519509355e+001dB,-1.54466063553649e+001°)
3.12643572722383e+003	(1.57608086766886e+001dB,-1.57852426981907e+001°)
3.19853049046358e+003	(1.57458468361368e+001dB,-1.61305213136963e+001°)
3.27228773946670e+003	(1.57302420204012e+001dB,-1.64825213746781e+001°)
3.34774581070575e+003	(1.57139690546852e+001dB,-1.68413195755339e+001°)
3.42494392468202e+003	(1.56970019915641e+001dB,-1.72069898675115e+001°)
3.50392220631093e+003	(1.56793141071184e+001dB,-1.75796031850621e+001°)
3.58472170577762e+003	(1.56608778976243e+001dB,-1.79592271585740e+001°)
3.66738441987343e+003	(1.56416650770193e+001dB,-1.83459258134303e+001°)
3.75195331382434e+003	(1.56216465777237e+001dB,-1.87397592606596e+001°)
3.83847234362283e+003	(1.56007925555710e+001dB,-1.91407833812859e+001°)
3.92698647887472e+003	(1.55790723927736e+001dB,-1.95490494908977e+001°)
4.01754172617275e+003	(1.55564547089576e+001dB,-1.99646040070100e+001°)
4.11018515300930e+003	(1.55329073712086e+001dB,-2.03874880992498e+001°)
4.20496491224038e+003	(1.55083975081268e+001dB,-2.08177373338844e+001°)
4.30193026711388e+003	(1.54828915274487e+001dB,-2.12553813123462e+001°)
4.40113161687483e+003	(1.54563551374332e+001dB,-2.17004433050742e+001°)
4.50262052296129e+003	(1.54287533718851e+001dB,-2.21529398812408e+001°)
4.60644973580411e+003	(1.54000506192875e+001dB,-2.26128805366011e+001°)
4.71267322224485e+003	(1.53702106516998e+001dB,-2.30802673085365e+001°)
4.82134619358584e+003	(1.53391966688162e+001dB,-2.35550944219263e+001°)
4.93252513428714e+003	(1.53069713302644e+001dB,-2.40373478931658e+001°)
5.04626783132518e+003	(1.52734968072352e+001dB,-2.45270051801828e+001°)
5.16263340422848e+003	(1.52387348296483e+001dB,-2.50240348140253e+001°)
5.28168233580590e+003	(1.52026467431829e+001dB,-2.55283960550190e+001°)
5.40347650358354e+003	(1.51651935646846e+001dB,-2.60400385413599e+001°)
5.52807921196651e+003	(1.51263360501300e+001dB,-2.65589019762289e+001°)
5.65555522514245e+003	(1.50860347589167e+001dB,-2.70849158055375e+001°)
5.78597080074362e+003	(1.50442501328714e+001dB,-2.76179989482817e+001°)
5.91939372428541e+003	(1.50009425676430e+001dB,-2.81580595093801e+001°)
6.05589334439888e+003	(1.49560724987985e+001dB,-2.87049945522436e+001°)
6.19554060887576e+003	(1.49096004868894e+001dB,-2.92586898823041e+001°)
6.33840810154473e+003	(1.48614873086189e+001dB,-2.98190198692421e+001°)
6.48457007999792e+003	(1.48116940504838e+001dB,-3.03858472990413e+001°)
6.63410251418748e+003	(1.47601822054235e+001dB,-3.09590232612844e+001°)
6.78708312591215e+003	(1.47069137752642e+001dB,-3.15383870868837e+001°)
6.94359142921434e+003	(1.46518513735944e+001dB,-3.21237663200390e+001°)
7.10370877170878e+003	(1.45949583306537e+001dB,-3.27149767340779e+001°)
7.26751837686424e+003	(1.45361988013937e+001dB,-3.33118224004062e+001°)
7.43510538726020e+003	(1.44755378732810e+001dB,-3.39140958007011e+001°)
7.60655690884100e+003	(1.44129416769871e+001dB,-3.45215779999325e+001°)
7.78196205619054e+003	(1.43483774926960e+001dB,-3.51340388523607e+001°)
7.96141199885094e+003	(1.42818138611753e+001dB,-3.57512372847597e+001°)
8.14500000870935e+003	(1.42132206887177e+001dB,-3.63729216119010e+001°)
8.33282150847742e+003	(1.41425693550274e+001dB,-3.69988299293565e+001°)
8.52497412128875e+003	(1.40698328097022e+001dB,-3.76286905179464e+001°)
8.72155772144005e+003	(1.39949856769520e+001dB,-3.82622223579341e+001°)
8.92267448630230e+003	(1.39180043460253e+001dB,-3.88991356452357e+001°)
9.12842894942908e+003	(1.38388670611847e+001dB,-3.95391323787336e+001°)
9.33892805488945e+003	(1.37575540069339e+001dB,-4.01819070000452e+001°)
9.55428121285382e+003	(1.36740473831432e+001dB,-4.08271470570737e+001°)
9.77460035646159e+003	(1.35883314762618e+001dB,-4.14745339244032e+001°)
1.00000000000001e+004	(1.35003927232827e+001dB,-4.21237435631442e+001°)
1.02305972984252e+004	(1.34102197650231e+001dB,-4.27744472986674e+001°)
1.04665121082544e+004	(1.33178034926391e+001dB,-4.34263126365704e+001°)
1.07078670498640e+004	(1.32231370865728e+001dB,-4.40790041111736e+001°)
1.09547875712234e+004	(1.31262160415462e+001dB,-4.47321841232701e+001°)
1.12074020130979e+004	(1.30270381886834e+001dB,-4.53855138326489e+001°)
1.14658416757563e+004	(1.29256037029054e+001dB,-4.60386540268856e+001°)
1.17302408872162e+004	(1.28219151011161e+001dB,-4.66912659947926e+001°)
1.20007370730630e+004	(1.27159772335604e+001dB,-4.73430124161848e+001°)
1.22774708278788e+004	(1.26077972633791e+001dB,-4.79935582288077e+001°)
1.25605859883190e+004	(1.24973846363219e+001dB,-4.86425714777905e+001°)
1.28502297078732e+004	(1.23847510426467e+001dB,-4.92897241554757e+001°)
1.31465525333509e+004	(1.22699103693833e+001dB,-4.99346930113231e+001°)
1.34497084831303e+004	(1.21528786440354e+001dB,-5.05771603315209e+001°)
1.37598551272118e+004	(1.20336739715173e+001dB,-5.12168146945309e+001°)
1.40771536691174e+004	(1.19123164609739e+001dB,-5.18533516675799e+001°)
1.44017690296787e+004	(1.17888281497048e+001dB,-5.24864744936814e+001°)
1.47338699327573e+004	(1.16632329168090e+001dB,-5.31158947011818e+001°)
1.50736289929414e+004	(1.15355563933048e+001dB,-5.37413326819858e+001°)
1.54212228052648e+004	(1.14058258688292e+001dB,-5.43625182337387e+001°)
1.57768320369953e+004	(1.12740701903016e+001dB,-5.49791910162414e+001°)
1.61406415215391e+004	(1.11403196608269e+001dB,-5.55911009876709e+001°)
1.65128403545105e+004	(1.10046059341151e+001dB,-5.61980087717949e+001°)
1.68936219920180e+004	(1.08669619075738e+001dB,-5.67996859777067e+001°)
1.72831843512154e+004	(1.07274216129045e+001dB,-5.73959154539687e+001°)
1.76817299131727e+004	(1.05860201080362e+001dB,-5.79864915090315e+001°)
1.80894658281187e+004	(1.04427933673929e+001dB,-5.85712200626474e+001°)
1.85066040231104e+004	(1.02977781741821e+001dB,-5.91499187605580e+001°)
1.89333613121856e+004	(1.01510120124645e+001dB,-5.97224170246455e+001°)
1.93699595090552e+004	(1.00025329628097e+001dB,-6.02885560755604e+001°)
1.98166255423944e+004	(9.85237959801057e+000dB,-6.08481888857700e+001°)
2.02735915737921e+004	(9.70059088422573e+000dB,-6.14011801207581e+001°)
2.07410951184211e+004	(9.54720608315527e+000dB,-6.19474060168014e+001°)
2.12193791684897e+004	(9.39226465770969e+000dB,-6.24867542206566e+001°)
2.17086923195408e+004	(9.23580618381511e+000dB,-6.30191236242273e+001°)
2.22092888996636e+004	(9.07787026331727e+000dB,-6.35444241317847e+001°)
2.27214291016840e+004	(8.91849644288114e+000dB,-6.40625764201271e+001°)
2.32453791184046e+004	(8.75772413718756e+000dB,-6.45735116724084e+001°)
2.37814112809617e+004	(8.59559255580203e+000dB,-6.50771712777983e+001°)
2.43298042003743e+004	(8.43214063634276e+000dB,-6.55735065347149e+001°)
2.48908429123560e+004	(8.26740698018300e+000dB,-6.60624783079817e+001°)
2.54648190254673e+004	(8.10142979474548e+000dB,-6.65440566989809e+001°)
2.60520308726829e+004	(7.93424683880266e+000dB,-6.70182206807673e+001°)
2.66527836664557e+004	(7.76589537415527e+000dB,-6.74849577510662e+001°)
2.72673896573550e+004	(7.59641212006379e+000dB,-6.79442635523668e+001°)
2.78961682963640e+004	(7.42583321333367e+000dB,-6.83961415068666e+001°)
2.85394464009193e+004	(7.25419417192631e+000dB,-6.88406024374846e+001°)
2.91975583247792e+004	(7.08152986314332e+000dB,-6.92776641954894e+001°)
2.98708461318095e+004	(6.90787447562917e+000dB,-6.97073512871799e+001°)
3.05596597737762e+004	(6.73326149537509e+000dB,-7.01296945069952e+001°)
3.12643572722385e+004	(6.55772368460075e+000dB,-7.05447305616420e+001°)
3.19853049046360e+004	(6.38129306527009e+000dB,-7.09525017210639e+001°)
3.27228773946671e+004	(6.20400090472739e+000dB,-7.13530554558681e+001°)
3.34774581070577e+004	(6.02587770519452e+000dB,-7.17464440970615e+001°)
3.42494392468203e+004	(5.84695319575042e+000dB,-7.21327244974742e+001°)
3.50392220631094e+004	(5.66725632712643e+000dB,-7.25119577051273e+001°)
3.58472170577764e+004	(5.48681526862130e+000dB,-7.28842086390693e+001°)
3.66738441987345e+004	(5.30565740811026e+000dB,-7.32495457919867e+001°)
3.75195331382435e+004	(5.12380935328347e+000dB,-7.36080409254015e+001°)
3.83847234362285e+004	(4.94129693542138e+000dB,-7.39597687884993e+001°)
3.92698647887473e+004	(4.75814521459989e+000dB,-7.43048068409729e+001°)
4.01754172617277e+004	(4.57437848671679e+000dB,-7.46432349921469e+001°)
4.11018515300932e+004	(4.39002029189758e+000dB,-7.49751353503400e+001°)
4.20496491224040e+004	(4.20509342412914e+000dB,-7.53005919820578e+001°)
4.30193026711389e+004	(4.01961994205558e+000dB,-7.56196906827883e+001°)
4.40113161687485e+004	(3.83362118092220e+000dB,-7.59325187623439e+001°)
4.50262052296131e+004	(3.64711776538554e+000dB,-7.62391648411587e+001°)
4.60644973580413e+004	(3.46012962273666e+000dB,-7.65397186478743e+001°)
4.71267322224487e+004	(3.27267599730485e+000dB,-7.68342708412437e+001°)
4.82134619358586e+004	(3.08477546524732e+000dB,-7.71229128385073e+001°)
4.93252513428716e+004	(2.89644594959225e+000dB,-7.74057366481547e+001°)
5.04626783132520e+004	(2.70770473576316e+000dB,-7.76828347153338e+001°)
5.16263340422851e+004	(2.51856848760670e+000dB,-7.79542997832562e+001°)
5.28168233580593e+004	(2.32905326336241e+000dB,-7.82202247562392e+001°)
5.40347650358356e+004	(2.13917453178586e+000dB,-7.84807025714909e+001°)
